(1684363493.173982) vcan0 18E#00006B
(1684363493.173995) vcan0 1CF#80050000001E
(1684363493.174007) vcan0 1DC#0200001B
(1684363493.174019) vcan0 183#0000000300001026
(1684363493.175811) vcan0 143#6B6B00E0
(1684363493.175994) vcan0 039#0039
(1684363493.176050) vcan0 333#0000000000002D
(1684363493.177829) vcan0 095#800007F400000017
(1684363493.177910) vcan0 1A4#000000080000003E
(1684363493.177926) vcan0 1AA#7FFF00000000683E
(1684363493.177939) vcan0 1B0#000F0000000175
(1684363493.179595) vcan0 1D0#000000000000000A
(1684363493.179655) vcan0 166#D0320027
(1684363493.181236) vcan0 158#0000000000000028
(1684363493.181285) vcan0 161#000005500108002B
(1684363493.181301) vcan0 191#010090A1410012
(1684363493.181316) vcan0 133#00000000B6
(1684363493.182859) vcan0 136#0002000000000039
(1684363493.182929) vcan0 13A#0000000000000037
(1684363493.182943) vcan0 13F#000000050000003D
(1684363493.182959) vcan0 164#0000C01AA8000013
(1684363493.182973) vcan0 17C#0000000010000030
(1684363493.182984) vcan0 18E#00007A
(1684363493.182997) vcan0 294#040B0002CF5A001D
(1684363493.183215) vcan0 244#0000000180
(1684363493.184520) vcan0 21E#03E83745220610
(1684363493.184549) vcan0 183#0000000A0000103E
(1684363493.186249) vcan0 143#6B6B00FF
(1684363493.187811) vcan0 095#800007F400000026
(1684363493.189487) vcan0 166#D0320036
(1684363493.190834) vcan0 158#0000000000000037
(1684363493.190891) vcan0 161#000005500108003A
(1684363493.192330) vcan0 191#010090A1410021
(1684363493.192387) vcan0 133#0000000089
(1684363493.192393) vcan0 136#000200000000000C
(1684363493.192399) vcan0 13A#000000000000000A
(1684363493.192405) vcan0 13F#0000000500000000
(1684363493.192411) vcan0 164#0000C01AA8000022
(1684363493.194606) vcan0 17C#0000000010000003
(1684363493.194677) vcan0 18E#00004D
(1684363493.194698) vcan0 1CF#80050000002D
(1684363493.194713) vcan0 1DC#0200002A
(1684363493.194725) vcan0 320#000021
(1684363493.194741) vcan0 324#7465000000000E29
(1684363493.194754) vcan0 244#0000000169
(1684363493.194756) vcan0 37C#FD00FD00097F0029
(1684363493.194767) vcan0 40C#014A484D46413325
(1684363493.194773) vcan0 183#0000000700001004
(1684363493.194779) vcan0 454#23EF27
(1684363493.194785) vcan0 143#6B6B00C2
(1684363493.197650) vcan0 095#800007F400000035
(1684363493.197711) vcan0 039#000C
(1684363493.197726) vcan0 1A4#0000000800000001
(1684363493.197738) vcan0 1AA#7FFF000000006801
(1684363493.199232) vcan0 1B0#000F0000000148
(1684363493.199331) vcan0 1D0#000000000000000A
(1684363493.200952) vcan0 166#D0320009
(1684363493.201015) vcan0 158#000000000000000A
(1684363493.201032) vcan0 161#000005500108000D
(1684363493.201046) vcan0 191#010090A1410030
(1684363493.202706) vcan0 133#0000000098
(1684363493.202775) vcan0 136#000200000000001B
(1684363493.202790) vcan0 13A#0000000000000019
(1684363493.202806) vcan0 13F#000000050000001F
(1684363493.202820) vcan0 164#0000C01AA8000031
(1684363493.202832) vcan0 17C#0000000010000012
(1684363493.202844) vcan0 18E#00005C
(1684363493.204623) vcan0 183#0000000D0000101D
(1684363493.204671) vcan0 143#6B6B00D1
(1684363493.205917) vcan0 244#00000001B5
(1684363493.207123) vcan0 095#800007F400000008
(1684363493.209951) vcan0 166#D0320018
(1684363493.211325) vcan0 158#0000000000000019
(1684363493.211402) vcan0 161#000005500108001C
(1684363493.211416) vcan0 191#010090A1410003
(1684363493.211433) vcan0 133#00000000A7
(1684363493.213088) vcan0 136#000200000000002A
(1684363493.213149) vcan0 13A#0000000000000028
(1684363493.213164) vcan0 13F#000000050000002E
(1684363493.213180) vcan0 164#0000C01AA8000004
(1684363493.213194) vcan0 17C#0000000010000021
(1684363493.213205) vcan0 18E#00006B
(1684363493.213217) vcan0 1CF#80050000003C
(1684363493.213230) vcan0 1DC#02000039
(1684363493.214860) vcan0 183#0000001100001027
(1684363493.214925) vcan0 143#6B6B00E0
(1684363493.216520) vcan0 039#001B
(1684363493.217171) vcan0 244#00000001F1
(1684363493.217798) vcan0 095#800007F400000017
(1684363493.217824) vcan0 1A4#0000000800000010
(1684363493.217837) vcan0 1AA#7FFF000000006810
(1684363493.217847) vcan0 1B0#000F0000000157
(1684363493.219373) vcan0 1D0#000000000000000A
(1684363493.219504) vcan0 166#D0320027
(1684363493.221317) vcan0 158#0000000000000028
(1684363493.221391) vcan0 161#000005500108002B
(1684363493.221404) vcan0 191#010090A1410012
(1684363493.221417) vcan0 133#00000000B6
(1684363493.222786) vcan0 136#0002000000000039
(1684363493.222873) vcan0 13A#0000000000000037
(1684363493.222887) vcan0 13F#000000050000003D
(1684363493.222899) vcan0 164#0000C01AA8000013
(1684363493.222912) vcan0 17C#0000000010000030
(1684363493.222924) vcan0 18E#00007A
(1684363493.222935) vcan0 294#040B0002CF5A002C
(1684363493.224654) vcan0 21E#03E8374522062F
(1684363493.224708) vcan0 309#00000000000000B1
(1684363493.224715) vcan0 428#01040000521C3E
(1684363493.224721) vcan0 405#0000040000000038
(1684363493.224727) vcan0 183#0000000C0000103C
(1684363493.224732) vcan0 143#6B6B00FF
(1684363493.227962) vcan0 095#800007F400000026
(1684363493.229035) vcan0 244#0000000183
(1684363493.230916) vcan0 166#D0320036
(1684363493.230985) vcan0 039#002A
(1684363493.230998) vcan0 158#0000000000000037
(1684363493.231009) vcan0 161#000005500108003A
(1684363493.231028) vcan0 191#010090A1410021
(1684363493.233400) vcan0 133#0000000089
(1684363493.233444) vcan0 136#000200000000000C
(1684363493.233458) vcan0 13A#000000000000000A
(1684363493.233470) vcan0 13F#0000000500000000
(1684363493.233482) vcan0 164#0000C01AA8000022
(1684363493.233496) vcan0 17C#0000000010000003
(1684363493.233509) vcan0 18E#00004D
(1684363493.233520) vcan0 1CF#80050000000F
(1684363493.233546) vcan0 1DC#0200000C
(1684363493.234732) vcan0 183#000000100000100A
(1684363493.234787) vcan0 143#6B6B00C2
(1684363493.238086) vcan0 095#800007F400000035
(1684363493.238148) vcan0 1A4#000000080000002F
(1684363493.238163) vcan0 1AA#7FFF000000006720
(1684363493.238178) vcan0 1B0#000F0000000166
(1684363493.238198) vcan0 1D0#000000000000000A
(1684363493.239552) vcan0 166#D0320009
(1684363493.240295) vcan0 244#0000000156
(1684363493.240949) vcan0 158#000000000000000A
(1684363493.241389) vcan0 161#000005500108000D
(1684363493.241649) vcan0 191#010090A1410030
(1684363493.241670) vcan0 133#0000000098
(1684363493.241683) vcan0 136#000200000000001B
(1684363493.243280) vcan0 13A#0000000000000019
(1684363493.243341) vcan0 13F#000000050000001F
(1684363493.243349) vcan0 164#0000C01AA9000030
(1684363493.243355) vcan0 17C#0000000010000012
(1684363493.243360) vcan0 18E#00005C
(1684363493.244927) vcan0 039#0039
(1684363493.244987) vcan0 183#0000000C0000101E
(1684363493.245002) vcan0 143#6B6B00D1
(1684363493.247593) vcan0 095#800007F400000008
(1684363493.250439) vcan0 166#D0320018
(1684363493.251627) vcan0 158#0000000000000019
(1684363493.251709) vcan0 161#000005500108001C
(1684363493.251723) vcan0 191#010090A1410003
(1684363493.251736) vcan0 133#00000000A7
(1684363493.251747) vcan0 136#000200000000002A
(1684363493.251758) vcan0 13A#0000000000000028
(1684363493.253103) vcan0 13F#000000050000002E
(1684363493.253163) vcan0 164#0000C01AA8000004
(1684363493.253179) vcan0 17C#0000000010000021
(1684363493.253192) vcan0 18E#00006B
(1684363493.253205) vcan0 1CF#80050000001E
(1684363493.253216) vcan0 1DC#0200001B
(1684363493.254960) vcan0 183#0000001000001028
(1684363493.255018) vcan0 143#6B6B00E0
(1684363493.256454) vcan0 244#0000000185
(1684363493.257759) vcan0 095#800007F400000017
(1684363493.257787) vcan0 1A4#000000080000003E
(1684363493.257796) vcan0 1AA#7FFF00000000683E
(1684363493.259593) vcan0 1B0#000F0000000175
(1684363493.259654) vcan0 1D0#000000000000000A
(1684363493.259666) vcan0 039#000C
(1684363493.259676) vcan0 166#D0320027
(1684363493.261478) vcan0 158#0000000000000028
(1684363493.261537) vcan0 161#000005500108002B
(1684363493.261553) vcan0 191#010090A1410012
(1684363493.261567) vcan0 133#00000000B6
(1684363493.261580) vcan0 136#0002000000000039
(1684363493.262893) vcan0 13A#0000000000000037
(1684363493.262967) vcan0 13F#000000050000003D
(1684363493.262979) vcan0 164#0000C01AA8000013
(1684363493.262990) vcan0 17C#0000000010000030
(1684363493.263001) vcan0 18E#00007A
(1684363493.263012) vcan0 294#040B0002CF5A003B
(1684363493.264607) vcan0 21E#03E8374522063E
(1684363493.264656) vcan0 183#0000001300001034
(1684363493.264666) vcan0 143#6B6B00FF
(1684363493.267657) vcan0 244#0000000186
(1684363493.267679) vcan0 095#800007F800000022
(1684363493.270645) vcan0 166#D0320036
(1684363493.270717) vcan0 158#0000000000000037
(1684363493.271905) vcan0 161#000005500108003A
(1684363493.272010) vcan0 191#010090A1410021
(1684363493.272027) vcan0 133#0000000089
(1684363493.272039) vcan0 136#000200000000000C
(1684363493.272051) vcan0 13A#000000000000000A
(1684363493.272062) vcan0 13F#0000000500000000
(1684363493.273471) vcan0 164#0000C01AA8000022
(1684363493.273529) vcan0 17C#0000000010000003
(1684363493.273543) vcan0 18E#00004D
(1684363493.273554) vcan0 1CF#80050000002D
(1684363493.273570) vcan0 1DC#0200002A
(1684363493.273580) vcan0 305#8035
(1684363493.275313) vcan0 183#0000000E0000100D
(1684363493.275352) vcan0 143#6B6B00C2
(1684363493.277157) vcan0 333#0000000000003C
(1684363493.277209) vcan0 095#800007F800000031
(1684363493.278571) vcan0 1A4#0000000800000001
(1684363493.278618) vcan0 244#000000012F
(1684363493.278619) vcan0 1AA#7FFF000000006801
(1684363493.278634) vcan0 1B0#000F0000000148
(1684363493.278646) vcan0 1D0#000000000000000A
(1684363493.280147) vcan0 039#001B
(1684363493.280175) vcan0 166#D0320009
(1684363493.281756) vcan0 158#000000000000000A
(1684363493.281789) vcan0 161#000005500108000D
(1684363493.281805) vcan0 191#010090A1410030
(1684363493.281819) vcan0 133#0000000098
(1684363493.281838) vcan0 136#000200000000001B
(1684363493.281859) vcan0 13A#0000000000000019
(1684363493.283656) vcan0 13F#000000050000001F
(1684363493.283722) vcan0 164#0000C01AA8000031
(1684363493.283737) vcan0 17C#0000000010000012
(1684363493.283751) vcan0 18E#00005C
(1684363493.285411) vcan0 183#0000000A00001010
(1684363493.285486) vcan0 143#6B6B00D1
(1684363493.288584) vcan0 095#800007F800000004
(1684363493.289228) vcan0 244#00000001A6
(1684363493.289826) vcan0 166#D0320018
(1684363493.291604) vcan0 158#0000000000000019
(1684363493.291663) vcan0 161#000005500108001C
(1684363493.291670) vcan0 191#010090A1410003
(1684363493.291676) vcan0 133#00000000A7
(1684363493.291682) vcan0 136#000200000000002A
(1684363493.293411) vcan0 13A#0000000000000028
(1684363493.293484) vcan0 13F#000000050000002E
(1684363493.293499) vcan0 164#0000C01AA8000004
(1684363493.293514) vcan0 039#002A
(1684363493.293528) vcan0 17C#0000000010000021
(1684363493.293539) vcan0 18E#00006B
(1684363493.293551) vcan0 1CF#80050000003C
(1684363493.293561) vcan0 1DC#02000039
(1684363493.293572) vcan0 320#000030
(1684363493.293629) vcan0 324#7465000000000E38
(1684363493.295207) vcan0 37C#FD00FD00097F0038
(1684363493.295256) vcan0 183#0000000700001022
(1684363493.295271) vcan0 143#6B6B00E0
(1684363493.296867) vcan0 095#800007F800000013
(1684363493.298098) vcan0 1A4#0000000800000010
(1684363493.298192) vcan0 1AA#7FFF000000006810
(1684363493.298206) vcan0 1B0#000F0000000157
(1684363493.298219) vcan0 1D0#000000000000000A
(1684363493.299553) vcan0 166#D0320027
(1684363493.300699) vcan0 244#0000000193
(1684363493.300941) vcan0 158#0000000000000028
(1684363493.300975) vcan0 161#000005500108002B
(1684363493.302206) vcan0 191#010090A1410012
(1684363493.302223) vcan0 133#00000000B6
(1684363493.302428) vcan0 136#0002000000000039
(1684363493.302447) vcan0 13A#0000000000000037
(1684363493.302462) vcan0 13F#000000050000003D
(1684363493.302474) vcan0 164#0000C01AA8000013
(1684363493.302487) vcan0 17C#0000000010000030
(1684363493.304295) vcan0 18E#00007A
(1684363493.304363) vcan0 294#040B0002CF5A000E
(1684363493.304378) vcan0 21E#03E83745220601
(1684363493.306186) vcan0 183#0000000500001033
(1684363493.306236) vcan0 143#6B6B00FF
(1684363493.306250) vcan0 039#0039
(1684363493.307952) vcan0 095#800007F800000022
(1684363493.309736) vcan0 166#D0320036
(1684363493.311507) vcan0 158#0000000000000037
(1684363493.311552) vcan0 161#000005500108003A
(1684363493.311566) vcan0 191#010090A1410021
(1684363493.311579) vcan0 164#0000C01AA8000022
(1684363493.311584) vcan0 244#0000000150
(1684363493.311591) vcan0 133#0000000089
(1684363493.313164) vcan0 136#000200000000000C
(1684363493.313233) vcan0 13A#000000000000000A
(1684363493.313245) vcan0 13F#0000000500000000
(1684363493.313251) vcan0 17C#0000000010000003
(1684363493.313257) vcan0 18E#00004D
(1684363493.313263) vcan0 1CF#80050000000F
(1684363493.313269) vcan0 1DC#0200000C
(1684363493.314965) vcan0 183#0000000B00001000
(1684363493.315034) vcan0 143#6B6B00C2
(1684363493.316859) vcan0 095#800007F800000031
(1684363493.318166) vcan0 1A4#000000080000002F
(1684363493.318253) vcan0 1AA#7FFF000000006720
(1684363493.318266) vcan0 1B0#000F0000000166
(1684363493.318278) vcan0 1D0#000000000000000A
(1684363493.319988) vcan0 166#D0320009
(1684363493.321812) vcan0 158#000000000000000A
(1684363493.321874) vcan0 161#000005500108000D
(1684363493.321887) vcan0 191#010090A1410030
(1684363493.321900) vcan0 039#000C
(1684363493.321910) vcan0 133#0000000098
(1684363493.321921) vcan0 136#000200000000001B
(1684363493.321932) vcan0 13A#0000000000000019
(1684363493.323229) vcan0 13F#000000050000001F
(1684363493.323307) vcan0 164#0000C01AA8000031
(1684363493.323335) vcan0 17C#0000000010000012
(1684363493.323353) vcan0 18E#00005C
(1684363493.323365) vcan0 309#0000000000000084
(1684363493.325034) vcan0 183#0000000800001012
(1684363493.325109) vcan0 143#6B6B00D1
(1684363493.327559) vcan0 244#00000001EA
(1684363493.328090) vcan0 095#800007F800000004
(1684363493.329752) vcan0 166#D0320018
(1684363493.331390) vcan0 158#0000000000000019
(1684363493.331468) vcan0 161#000005500108001C
(1684363493.331483) vcan0 191#010090A1410003
(1684363493.331499) vcan0 133#00000000A7
(1684363493.331512) vcan0 136#000200000000002A
(1684363493.333022) vcan0 13A#0000000000000028
(1684363493.333081) vcan0 13F#000000050000002E
(1684363493.333127) vcan0 164#0000C01AA8000004
(1684363493.333142) vcan0 17C#0000000010000021
(1684363493.333154) vcan0 18E#00006B
(1684363493.333165) vcan0 1CF#80050000001E
(1684363493.333177) vcan0 1DC#0200001B
(1684363493.334807) vcan0 183#0000000D0000102C
(1684363493.334865) vcan0 143#6B6B00E0
(1684363493.336579) vcan0 039#001B
(1684363493.337894) vcan0 095#800007F800000013
(1684363493.337975) vcan0 1A4#000000080000003E
(1684363493.337990) vcan0 1AA#7FFF00000000683E
(1684363493.338004) vcan0 1B0#000F0000000175
(1684363493.338678) vcan0 244#00000001C2
(1684363493.339220) vcan0 1D0#000000000000000A
(1684363493.340787) vcan0 166#D0320027
(1684363493.340876) vcan0 158#0000000000000028
(1684363493.340889) vcan0 161#000005500108002B
(1684363493.341977) vcan0 191#010090A1410012
(1684363493.342071) vcan0 133#00000000B6
(1684363493.342084) vcan0 136#0002000000000039
(1684363493.342095) vcan0 13A#0000000000000037
(1684363493.342106) vcan0 13F#000000050000003D
(1684363493.343790) vcan0 164#0000C01AA8000013
(1684363493.343870) vcan0 17C#0000000010000030
(1684363493.343885) vcan0 18E#00007A
(1684363493.343898) vcan0 294#040B0002CF5A001D
(1684363493.343911) vcan0 21E#03E83745220610
(1684363493.345570) vcan0 183#000000090000103F
(1684363493.345616) vcan0 143#6B6B00FF
(1684363493.347265) vcan0 095#800007F800000022
(1684363493.349611) vcan0 244#0000000184
(1684363493.350791) vcan0 166#D0320036
(1684363493.350816) vcan0 039#002A
(1684363493.350827) vcan0 158#0000000000000037
(1684363493.350871) vcan0 161#000005500108003A
(1684363493.352677) vcan0 191#010090A1410021
(1684363493.352756) vcan0 164#0000C01AA8000022
(1684363493.352770) vcan0 133#0000000089
(1684363493.352782) vcan0 136#000200000000000C
(1684363493.352793) vcan0 13A#000000000000000A
(1684363493.352804) vcan0 13F#0000000500000000
(1684363493.352815) vcan0 17C#0000000010000003
(1684363493.352825) vcan0 18E#00004D
(1684363493.352836) vcan0 1CF#80050000002D
(1684363493.354627) vcan0 1DC#0200002A
(1684363493.354700) vcan0 183#0000000600001005
(1684363493.354713) vcan0 143#6B6B00C2
(1684363493.358268) vcan0 095#800007F800000031
(1684363493.358343) vcan0 1A4#0000000800000001
(1684363493.358356) vcan0 1AA#7FFF000000006801
(1684363493.358368) vcan0 1B0#000F0000000148
(1684363493.358379) vcan0 1D0#000000000000000A
(1684363493.360014) vcan0 166#D0320009
(1684363493.361727) vcan0 158#000000000000000A
(1684363493.361791) vcan0 161#000005500108000D
(1684363493.361805) vcan0 191#010090A1410030
(1684363493.361819) vcan0 133#0000000098
(1684363493.361831) vcan0 136#000200000000001B
(1684363493.361842) vcan0 13A#0000000000000019
(1684363493.363522) vcan0 13F#000000050000001F
(1684363493.363608) vcan0 164#0000C01AA8000031
(1684363493.363623) vcan0 17C#0000000010000012
(1684363493.363634) vcan0 18E#00005C
(1684363493.365145) vcan0 183#0000000C0000101E
(1684363493.365225) vcan0 143#6B6B00D1
(1684363493.365239) vcan0 039#0039
(1684363493.365438) vcan0 244#0000000186
(1684363493.366895) vcan0 095#800007F800000004
(1684363493.369933) vcan0 166#D0320018
(1684363493.371227) vcan0 158#0000000000000019
(1684363493.371279) vcan0 161#000005500108001C
(1684363493.371287) vcan0 191#010090A1410003
(1684363493.371293) vcan0 133#00000000A7
(1684363493.372905) vcan0 136#000200000000002A
(1684363493.372981) vcan0 13A#0000000000000028
(1684363493.372995) vcan0 13F#000000050000002E
(1684363493.373008) vcan0 164#0000C01AA8000004
(1684363493.373019) vcan0 17C#0000000010000021
(1684363493.373030) vcan0 18E#00006B
(1684363493.373042) vcan0 1CF#80050000003C
(1684363493.373053) vcan0 1DC#02000039
(1684363493.374195) vcan0 183#0000000900001020
(1684363493.375451) vcan0 143#6B6B00E0
(1684363493.375524) vcan0 333#0000000000000F
(1684363493.376637) vcan0 244#0000000143
(1684363493.376882) vcan0 095#800007F800000013
(1684363493.378284) vcan0 1A4#0000000800000010
(1684363493.378305) vcan0 1AA#7FFF000000006711
(1684363493.378319) vcan0 1B0#000F0000000157
(1684363493.378335) vcan0 1D0#000000000000000A
(1684363493.378345) vcan0 305#8008
(1684363493.379571) vcan0 166#D0320027
(1684363493.381198) vcan0 158#0000000000000028
(1684363493.381287) vcan0 161#000005500108002B
(1684363493.381301) vcan0 191#010090A1410012
(1684363493.381315) vcan0 133#00000000B6
(1684363493.383034) vcan0 136#0002000000000039
(1684363493.383127) vcan0 13A#0000000000000037
(1684363493.383141) vcan0 13F#000000050000003D
(1684363493.383153) vcan0 164#0000C01AA8000013
(1684363493.383165) vcan0 17C#0000000010000030
(1684363493.383177) vcan0 18E#00007A
(1684363493.383187) vcan0 294#040B0002CF5A002C
(1684363493.383198) vcan0 21E#03E8374522062F
(1684363493.385006) vcan0 183#0000000E0000103A
(1684363493.385076) vcan0 143#6B6B00FF
(1684363493.385106) vcan0 039#000C
(1684363493.387626) vcan0 244#000000017A
(1684363493.388427) vcan0 095#800007F800000022
(1684363493.390238) vcan0 166#D0320036
(1684363493.391935) vcan0 158#0000000000000037
(1684363493.391982) vcan0 161#000005500108003A
(1684363493.391989) vcan0 191#010010A1410029
(1684363493.391995) vcan0 133#0000000089
(1684363493.392002) vcan0 136#000200000000000C
(1684363493.392008) vcan0 13A#000000000000000A
(1684363493.392014) vcan0 13F#0000000500000000
(1684363493.393588) vcan0 164#0000C01AA8000022
(1684363493.393648) vcan0 17C#0000000010000003
(1684363493.393655) vcan0 18E#00004D
(1684363493.393660) vcan0 1CF#80050000000F
(1684363493.393666) vcan0 1DC#0200000C
(1684363493.393672) vcan0 320#000003
(1684363493.393678) vcan0 324#7465000000000E0B
(1684363493.393684) vcan0 37C#FD00FD00097F000B
(1684363493.395272) vcan0 183#0000001200001008
(1684363493.395321) vcan0 143#6B6B00C2
(1684363493.398164) vcan0 095#800007F800000031
(1684363493.398218) vcan0 1A4#000000080000002F
(1684363493.398233) vcan0 039#001B
(1684363493.398246) vcan0 244#00000001D9
(1684363493.398249) vcan0 1AA#7FFF000000006720
(1684363493.398262) vcan0 1B0#000F0000000166
(1684363493.398274) vcan0 1D0#000000000000000A
(1684363493.399540) vcan0 166#D0320009
(1684363493.401047) vcan0 158#000000000000000A
(1684363493.401149) vcan0 161#000005500108000D
(1684363493.401162) vcan0 191#010010A1410038
(1684363493.402758) vcan0 133#0000000098
(1684363493.402832) vcan0 136#000200000000001B
(1684363493.402846) vcan0 13A#0000000000000019
(1684363493.402857) vcan0 13F#000000050000001F
(1684363493.402868) vcan0 164#0000C01AA8000031
(1684363493.402879) vcan0 17C#0000000010000012
(1684363493.402890) vcan0 18E#00005C
(1684363493.404523) vcan0 183#0000000D0000101D
(1684363493.404597) vcan0 143#6B6B00D1
(1684363493.407644) vcan0 095#800007F800000004
(1684363493.409353) vcan0 244#00000001A2
(1684363493.409584) vcan0 166#D0320018
(1684363493.410968) vcan0 158#0000000000000019
(1684363493.411002) vcan0 161#000005500108001C
(1684363493.412342) vcan0 191#010010A141000B
(1684363493.412404) vcan0 164#0000C01AA8000004
(1684363493.412422) vcan0 133#00000000A7
(1684363493.412435) vcan0 136#000200000000002A
(1684363493.412446) vcan0 13A#0000000000000028
(1684363493.412457) vcan0 13F#000000050000002E
(1684363493.412467) vcan0 039#002A
(1684363493.414008) vcan0 17C#0000000010000021
(1684363493.414039) vcan0 18E#00006B
(1684363493.414047) vcan0 1CF#80050000001E
(1684363493.414053) vcan0 1DC#0200001B
(1684363493.414060) vcan0 183#0000000900001020
(1684363493.415199) vcan0 143#6B6B00E0
(1684363493.416941) vcan0 095#800007F400000017
(1684363493.418694) vcan0 1A4#000000080000003E
(1684363493.418736) vcan0 1AA#7FFF00000000683E
(1684363493.418743) vcan0 1B0#000F0000000175
(1684363493.418749) vcan0 1D0#000000000000000A
(1684363493.420302) vcan0 166#D0320027
(1684363493.420389) vcan0 244#0000000127
(1684363493.421528) vcan0 158#0000000000000028
(1684363493.421543) vcan0 161#000005500108002B
(1684363493.421549) vcan0 191#010010A141001A
(1684363493.421555) vcan0 133#00000000B6
(1684363493.421561) vcan0 136#0002000000000039
(1684363493.423216) vcan0 13A#0000000000000037
(1684363493.423257) vcan0 13F#000000050000003D
(1684363493.423264) vcan0 164#0000C01AA8000013
(1684363493.423269) vcan0 17C#0000000010000030
(1684363493.423275) vcan0 18E#00007A
(1684363493.423281) vcan0 294#040B0002CF5A003B
(1684363493.423287) vcan0 21E#03E8374522063E
(1684363493.424976) vcan0 309#0000000000000093
(1684363493.425010) vcan0 183#0000000600001032
(1684363493.425016) vcan0 143#6B6B00FF
(1684363493.426284) vcan0 039#0039
(1684363493.427958) vcan0 095#800007F400000026
(1684363493.430091) vcan0 166#D0320036
(1684363493.431390) vcan0 244#000000017F
(1684363493.431760) vcan0 158#0000000000000037
(1684363493.431794) vcan0 161#000005500108003A
(1684363493.431807) vcan0 191#010010A1410029
(1684363493.431819) vcan0 133#0000000089
(1684363493.431831) vcan0 136#000200000000000C
(1684363493.431843) vcan0 13A#000000000000000A
(1684363493.433354) vcan0 13F#0000000500000000
(1684363493.433387) vcan0 164#0000C01AA8000022
(1684363493.433401) vcan0 17C#0000000010000003
(1684363493.433414) vcan0 18E#00004D
(1684363493.433425) vcan0 1CF#80050000002D
(1684363493.433439) vcan0 1DC#0200002A
(1684363493.434817) vcan0 183#0000000C0000100F
(1684363493.434862) vcan0 143#6B6B00C2
(1684363493.438015) vcan0 095#800007F400000035
(1684363493.438092) vcan0 1A4#0000000800000001
(1684363493.438110) vcan0 1AA#7FFF000000006801
(1684363493.438117) vcan0 1B0#000F0000000148
(1684363493.438123) vcan0 1D0#000000000000000A
(1684363493.439783) vcan0 166#D0320009
(1684363493.441579) vcan0 039#000C
(1684363493.441628) vcan0 158#000000000000000A
(1684363493.441642) vcan0 161#000005500108000D
(1684363493.441659) vcan0 191#010010A1410038
(1684363493.441673) vcan0 133#0000000098
(1684363493.441687) vcan0 136#000200000000001B
(1684363493.443261) vcan0 13A#0000000000000019
(1684363493.443407) vcan0 13F#000000050000001F
(1684363493.443425) vcan0 164#0000C01AA8000031
(1684363493.443434) vcan0 17C#0000000010000012
(1684363493.443440) vcan0 18E#00005C
(1684363493.445037) vcan0 183#0000001000001019
(1684363493.445096) vcan0 143#6B6B00D1
(1684363493.447862) vcan0 244#00000001D1
(1684363493.448006) vcan0 095#800007F400000008
(1684363493.449651) vcan0 166#D0320018
(1684363493.451041) vcan0 158#0000000000000019
(1684363493.451116) vcan0 161#000005500108001C
(1684363493.451131) vcan0 191#010010A141000B
(1684363493.452706) vcan0 133#00000000A7
(1684363493.452745) vcan0 136#000200000000002A
(1684363493.452752) vcan0 13A#0000000000000028
(1684363493.452758) vcan0 13F#000000050000002E
(1684363493.452763) vcan0 164#0000C01AA8000004
(1684363493.452769) vcan0 17C#0000000010000021
(1684363493.452774) vcan0 18E#00006B
(1684363493.454028) vcan0 1CF#80050000003C
(1684363493.454083) vcan0 1DC#02000039
(1684363493.454096) vcan0 183#0000000C0000102D
(1684363493.455834) vcan0 143#6B6B00E0
(1684363493.455902) vcan0 039#001B
(1684363493.457633) vcan0 095#800007F400000017
(1684363493.457692) vcan0 1A4#0000000800000010
(1684363493.457735) vcan0 1AA#7FFF000000006711
(1684363493.457742) vcan0 1B0#000F0000000157
(1684363493.458986) vcan0 1D0#000000000000000A
(1684363493.459006) vcan0 244#0000000193
(1684363493.460357) vcan0 166#D0320027
(1684363493.461985) vcan0 158#0000000000000028
(1684363493.462067) vcan0 161#000005500108002B
(1684363493.462082) vcan0 191#010010A141001A
(1684363493.462094) vcan0 133#00000000B6
(1684363493.462107) vcan0 136#0002000000000039
(1684363493.462120) vcan0 13A#0000000000000037
(1684363493.462133) vcan0 13F#000000050000003D
(1684363493.463857) vcan0 164#0000C01AA8000013
(1684363493.463904) vcan0 17C#0000000010000030
(1684363493.463918) vcan0 18E#00007A
(1684363493.463931) vcan0 294#040B0002CF5A000E
(1684363493.463943) vcan0 21E#03E83745220601
(1684363493.465527) vcan0 183#0000001000001037
(1684363493.465599) vcan0 143#6B6B00FF
(1684363493.467290) vcan0 095#800007F400000026
(1684363493.469131) vcan0 039#002A
(1684363493.469858) vcan0 244#0000000164
(1684363493.470454) vcan0 166#D0320036
(1684363493.472072) vcan0 158#0000000000000037
(1684363493.472139) vcan0 161#000005500108003A
(1684363493.472156) vcan0 191#010010A1410029
(1684363493.472170) vcan0 133#0000000089
(1684363493.472183) vcan0 136#000200000000000C
(1684363493.472195) vcan0 13A#000000000000000A
(1684363493.472208) vcan0 13F#0000000500000000
(1684363493.472220) vcan0 164#0000C01AA8000022
(1684363493.473972) vcan0 17C#0000000010000003
(1684363493.474050) vcan0 18E#00004D
(1684363493.474064) vcan0 1CF#80050000000F
(1684363493.474076) vcan0 1DC#0200000C
(1684363493.474087) vcan0 183#0000000C0000100F
(1684363493.475353) vcan0 143#6B6B00C2
(1684363493.477208) vcan0 333#0000000000001E
(1684363493.477280) vcan0 095#800007F400000035
(1684363493.477296) vcan0 1A4#000000080000002F
(1684363493.479064) vcan0 1AA#7FFF000000006720
(1684363493.479109) vcan0 1B0#000F0000000166
(1684363493.479124) vcan0 1D0#000000000000000A
(1684363493.480738) vcan0 166#D0320009
(1684363493.480768) vcan0 305#8017
(1684363493.480779) vcan0 158#000000000000000A
(1684363493.480870) vcan0 244#00000001FE
(1684363493.482323) vcan0 161#000005500108000D
(1684363493.482363) vcan0 191#010010A1410038
(1684363493.482375) vcan0 133#0000000098
(1684363493.482388) vcan0 136#000200000000001B
(1684363493.482399) vcan0 13A#0000000000000019
(1684363493.482411) vcan0 13F#000000050000001F
(1684363493.482422) vcan0 164#0000C01AA8000031
(1684363493.483841) vcan0 17C#0000000010000012
(1684363493.483906) vcan0 18E#00005C
(1684363493.485780) vcan0 183#0000000900001011
(1684363493.485836) vcan0 143#6B6B00D1
(1684363493.487617) vcan0 095#800007F400000008
(1684363493.487681) vcan0 039#0039
(1684363493.489381) vcan0 166#D0320018
(1684363493.490892) vcan0 158#0000000000000019
(1684363493.490939) vcan0 161#000005500108001C
(1684363493.492176) vcan0 191#010010A141000B
(1684363493.492178) vcan0 244#000000013B
(1684363493.492230) vcan0 133#00000000A7
(1684363493.492244) vcan0 136#000200000000002A
(1684363493.492256) vcan0 13A#0000000000000028
(1684363493.492272) vcan0 13F#000000050000002E
(1684363493.492281) vcan0 164#0000C01AA8000004
(1684363493.493903) vcan0 17C#0000000010000021
(1684363493.494049) vcan0 18E#00006B
(1684363493.494068) vcan0 1CF#80050000001E
(1684363493.494089) vcan0 1DC#0200001B
(1684363493.494105) vcan0 320#000012
(1684363493.494123) vcan0 324#7465000000000E1A
(1684363493.494139) vcan0 37C#FD00FD00097F001A
(1684363493.494149) vcan0 40C#0236323239533039
(1684363493.494161) vcan0 183#0000000E0000102B
(1684363493.495685) vcan0 454#23EF36
(1684363493.495726) vcan0 143#6B6B00E0
(1684363493.497453) vcan0 095#800007F400000017
(1684363493.497510) vcan0 1A4#000000080000003E
(1684363493.499232) vcan0 1AA#7FFF00000000683E
(1684363493.499295) vcan0 1B0#000F0000000175
(1684363493.499308) vcan0 1D0#000000000000000A
(1684363493.501101) vcan0 166#D0320027
(1684363493.501140) vcan0 158#0000000000000028
(1684363493.501146) vcan0 039#000C
(1684363493.501152) vcan0 161#000005500108002B
(1684363493.501158) vcan0 191#010010A141001A
(1684363493.502509) vcan0 133#00000000B6
(1684363493.502545) vcan0 136#0002000000000039
(1684363493.502551) vcan0 13A#0000000000000037
(1684363493.502557) vcan0 13F#000000050000003D
(1684363493.502563) vcan0 164#0000C01AA8000013
(1684363493.503185) vcan0 244#0000000188
(1684363493.504337) vcan0 17C#0000000010000030
(1684363493.504360) vcan0 18E#00007A
(1684363493.504373) vcan0 294#040B0002CF5A001D
(1684363493.504386) vcan0 21E#03E83745220610
(1684363493.506250) vcan0 183#0000000A0000103E
(1684363493.506312) vcan0 143#6B6B00FF
(1684363493.507964) vcan0 095#800007F400000026
(1684363493.511129) vcan0 166#D0320036
(1684363493.511197) vcan0 158#0000000000000037
(1684363493.511214) vcan0 161#000005500108003A
(1684363493.511227) vcan0 191#010010A1410029
(1684363493.511239) vcan0 133#0000000089
(1684363493.512621) vcan0 136#000200000000000C
(1684363493.512684) vcan0 13A#000000000000000A
(1684363493.512695) vcan0 13F#0000000500000000
(1684363493.512707) vcan0 164#0000C01AA8000022
(1684363493.512717) vcan0 17C#0000000010000003
(1684363493.512728) vcan0 18E#00004D
(1684363493.513794) vcan0 1CF#80050000002D
(1684363493.513817) vcan0 1DC#0200002A
(1684363493.515610) vcan0 183#0000000700001004
(1684363493.515677) vcan0 143#6B6B00C2
(1684363493.517203) vcan0 095#800007F400000035
(1684363493.517259) vcan0 039#001B
(1684363493.518587) vcan0 1A4#0000000800000001
(1684363493.518623) vcan0 1AA#7FFF000000006801
(1684363493.518630) vcan0 1B0#000F0000000148
(1684363493.518636) vcan0 1D0#000000000000000A
(1684363493.519266) vcan0 244#0000000193
(1684363493.519940) vcan0 166#D0320009
(1684363493.521299) vcan0 158#000000000000000A
(1684363493.521347) vcan0 161#000005500108000D
(1684363493.521354) vcan0 191#010010A1410038
(1684363493.521360) vcan0 133#0000000098
(1684363493.522681) vcan0 136#000200000000001B
(1684363493.522733) vcan0 13A#0000000000000019
(1684363493.522764) vcan0 13F#000000050000001F
(1684363493.522779) vcan0 164#0000C01AA8000031
(1684363493.522792) vcan0 17C#0000000010000012
(1684363493.522805) vcan0 18E#00005C
(1684363493.524500) vcan0 309#00000000000000A2
(1684363493.524554) vcan0 428#01040000521C01
(1684363493.524571) vcan0 405#000004000000000B
(1684363493.524584) vcan0 183#0000000D0000101D
(1684363493.524598) vcan0 143#6B6B00D1
(1684363493.527530) vcan0 095#800007F400000008
(1684363493.530579) vcan0 166#D0320018
(1684363493.530634) vcan0 158#0000000000000019
(1684363493.532327) vcan0 161#000005500108001C
(1684363493.532400) vcan0 191#010010A141000B
(1684363493.532414) vcan0 039#002A
(1684363493.532426) vcan0 133#00000000A7
(1684363493.532440) vcan0 136#000200000000002A
(1684363493.532452) vcan0 13A#0000000000000028
(1684363493.532464) vcan0 13F#000000050000002E
(1684363493.532476) vcan0 164#0000C01AA8000004
(1684363493.534010) vcan0 17C#0000000010000021
(1684363493.534067) vcan0 18E#00006B
(1684363493.534074) vcan0 1CF#80050000003C
(1684363493.534081) vcan0 1DC#02000039
(1684363493.534087) vcan0 183#0000000900001020
(1684363493.535693) vcan0 143#6B6B00E0
(1684363493.535723) vcan0 244#0000000159
(1684363493.537104) vcan0 095#800007F400000017
(1684363493.538924) vcan0 1A4#0000000800000010
(1684363493.538986) vcan0 1AA#7FFF000000006711
(1684363493.538992) vcan0 1B0#000F0000000157
(1684363493.538998) vcan0 1D0#000000000000000A
(1684363493.540697) vcan0 166#D0320027
(1684363493.540756) vcan0 158#0000000000000028
(1684363493.542108) vcan0 161#000005500108002B
(1684363493.542168) vcan0 191#010010A141001A
(1684363493.542198) vcan0 133#00000000B6
(1684363493.542211) vcan0 136#0002000000000039
(1684363493.542222) vcan0 13A#0000000000000037
(1684363493.542233) vcan0 13F#000000050000003D
(1684363493.542244) vcan0 164#0000C01AA8000013
(1684363493.543940) vcan0 17C#0000000010000030
(1684363493.544025) vcan0 18E#00007A
(1684363493.544033) vcan0 294#040B0002CF5A002C
(1684363493.544039) vcan0 21E#03E8374522062F
(1684363493.545720) vcan0 183#0000000E0000103A
(1684363493.545792) vcan0 143#6B6B00FF
(1684363493.547103) vcan0 095#800007F400000026
(1684363493.547123) vcan0 244#0000000133
(1684363493.549395) vcan0 5A1#960000000000623E
(1684363493.549977) vcan0 166#D0320036
(1684363493.551818) vcan0 158#0000000000000037
(1684363493.551866) vcan0 161#000005500108003A
(1684363493.551873) vcan0 191#010010A1410029
(1684363493.551879) vcan0 133#0000000089
(1684363493.551884) vcan0 039#0039
(1684363493.551890) vcan0 136#000200000000000C
(1684363493.551895) vcan0 13A#000000000000000A
(1684363493.553583) vcan0 13F#0000000500000000
(1684363493.553618) vcan0 164#0000C01AA8000022
(1684363493.553625) vcan0 17C#0000000010000003
(1684363493.553630) vcan0 18E#00004D
(1684363493.553636) vcan0 1CF#80050000000F
(1684363493.553642) vcan0 1DC#0200000C
(1684363493.555353) vcan0 183#0000000A00001001
(1684363493.555388) vcan0 143#6B6B00C2
(1684363493.557117) vcan0 095#800007F400000035
(1684363493.558515) vcan0 1A4#000000080000002F
(1684363493.558551) vcan0 1AA#7FFF000000006720
(1684363493.558557) vcan0 1B0#000F0000000166
(1684363493.558564) vcan0 1D0#000000000000000A
(1684363493.560229) vcan0 166#D0320009
(1684363493.562051) vcan0 158#000000000000000A
(1684363493.562074) vcan0 161#000005500108000D
(1684363493.562103) vcan0 191#010010A1410038
(1684363493.562116) vcan0 133#0000000098
(1684363493.562127) vcan0 136#000200000000001B
(1684363493.562139) vcan0 13A#0000000000000019
(1684363493.562150) vcan0 13F#000000050000001F
(1684363493.563336) vcan0 244#00000001AF
(1684363493.563784) vcan0 164#0000C01AA8000031
(1684363493.563829) vcan0 17C#0000000010000012
(1684363493.563843) vcan0 18E#00005C
(1684363493.565432) vcan0 183#0000000700001013
(1684363493.565496) vcan0 143#6B6B00D1
(1684363493.566998) vcan0 039#000C
(1684363493.567046) vcan0 095#800007F400000008
(1684363493.570335) vcan0 166#D0320018
(1684363493.572050) vcan0 158#0000000000000019
(1684363493.572086) vcan0 161#000005500108001C
(1684363493.572093) vcan0 191#010010A141000B
(1684363493.572098) vcan0 133#00000000A7
(1684363493.572104) vcan0 136#000200000000002A
(1684363493.572110) vcan0 13A#0000000000000028
(1684363493.572115) vcan0 13F#000000050000002E
(1684363493.573485) vcan0 164#0000C01AA8000004
(1684363493.573519) vcan0 17C#0000000010000021
(1684363493.573526) vcan0 18E#00006B
(1684363493.573531) vcan0 1CF#80050000001E
(1684363493.573537) vcan0 1DC#0200001B
(1684363493.574798) vcan0 183#0000000500001024
(1684363493.574814) vcan0 244#000000015E
(1684363493.574952) vcan0 143#6B6B00E0
(1684363493.576784) vcan0 333#0000000000002D
(1684363493.578566) vcan0 095#800007F400000017
(1684363493.578606) vcan0 1A4#000000080000003E
(1684363493.578613) vcan0 1AA#7FFF00000000683E
(1684363493.578619) vcan0 1B0#000F0000000175
(1684363493.578625) vcan0 1D0#000000000000000A
(1684363493.580288) vcan0 039#001B
(1684363493.580346) vcan0 166#D0320027
(1684363493.581851) vcan0 158#0000000000000028
(1684363493.581904) vcan0 161#000005500108002B
(1684363493.581921) vcan0 191#010010A141001A
(1684363493.581937) vcan0 133#00000000B6
(1684363493.582024) vcan0 136#0002000000000039
(1684363493.582036) vcan0 13A#0000000000000037
(1684363493.582047) vcan0 13F#000000050000003D
(1684363493.583371) vcan0 164#0000C01AA8000013
(1684363493.583418) vcan0 17C#0000000010000030
(1684363493.583425) vcan0 18E#00007A
(1684363493.583431) vcan0 294#040B0002CF5A003B
(1684363493.583437) vcan0 21E#03E8374522063E
(1684363493.585211) vcan0 183#0000000300001035
(1684363493.585246) vcan0 143#6B6B00FF
(1684363493.585996) vcan0 244#0000000104
(1684363493.586637) vcan0 305#8026
(1684363493.588444) vcan0 095#800007F400000026
(1684363493.590211) vcan0 166#D0320036
(1684363493.591968) vcan0 158#0000000000000037
(1684363493.592004) vcan0 161#000005500108003A
(1684363493.592011) vcan0 191#010010A1410029
(1684363493.592017) vcan0 133#0000000089
(1684363493.592022) vcan0 136#000200000000000C
(1684363493.592028) vcan0 13A#000000000000000A
(1684363493.592034) vcan0 13F#0000000500000000
(1684363493.593818) vcan0 164#0000C01AA8000022
(1684363493.593867) vcan0 039#002A
(1684363493.593874) vcan0 17C#0000000010000003
(1684363493.593880) vcan0 18E#00004D
(1684363493.593886) vcan0 1CF#80050000002D
(1684363493.593891) vcan0 1DC#0200002A
(1684363493.593897) vcan0 320#000021
(1684363493.593903) vcan0 324#7465000000000E29
(1684363493.593910) vcan0 37C#FD00FD00097F0029
(1684363493.595641) vcan0 183#0000000A00001001
(1684363493.595691) vcan0 143#6B6B00C2
(1684363493.597291) vcan0 095#800007F400000035
(1684363493.597331) vcan0 1A4#0000000800000001
(1684363493.599045) vcan0 1AA#7FFF000000006801
(1684363493.599114) vcan0 1B0#000F0000000148
(1684363493.599122) vcan0 1D0#000000000000000A
(1684363493.600893) vcan0 166#D0320009
(1684363493.600928) vcan0 158#000000000000000A
(1684363493.600935) vcan0 161#000005500108000D
(1684363493.602540) vcan0 191#010010A1410038
(1684363493.602567) vcan0 244#00000001BC
(1684363493.602699) vcan0 133#0000000098
(1684363493.602716) vcan0 136#000200000000001B
(1684363493.602729) vcan0 13A#0000000000000019
(1684363493.602743) vcan0 13F#000000050000001F
(1684363493.602754) vcan0 164#0000C01AA8000031
(1684363493.602765) vcan0 17C#0000000010000012
(1684363493.602775) vcan0 18E#00005C
(1684363493.604502) vcan0 183#0000000700001013
(1684363493.605713) vcan0 143#6B6B00D1
(1684363493.607479) vcan0 095#800007F400000008
(1684363493.608162) vcan0 188#00000000
(1684363493.609359) vcan0 166#D0320018
(1684363493.610847) vcan0 158#0000000000000019
(1684363493.610932) vcan0 161#000005500108001C
(1684363493.612634) vcan0 191#010010A141000B
(1684363493.612685) vcan0 133#00000000A7
(1684363493.612702) vcan0 136#000200000000002A
(1684363493.612715) vcan0 13A#0000000000000028
(1684363493.612727) vcan0 13F#000000050000002E
(1684363493.612741) vcan0 164#0000C01AA8000004
(1684363493.612754) vcan0 039#0039
(1684363493.612765) vcan0 17C#0000000010000021
(1684363493.612776) vcan0 18E#00006B
(1684363493.613387) vcan0 244#00000001FD
(1684363493.614527) vcan0 1CF#80050000003C
(1684363493.614552) vcan0 1DC#02000039
(1684363493.614563) vcan0 183#0000000500001024
(1684363493.616114) vcan0 143#6B6B00E0
(1684363493.617795) vcan0 095#800007F400000017
(1684363493.617862) vcan0 1A4#0000000800000010
(1684363493.617876) vcan0 1AA#7FFF000000006711
(1684363493.617889) vcan0 1B0#000F0000000157
(1684363493.619497) vcan0 1D0#000000000000000A
(1684363493.619561) vcan0 166#D0320027
(1684363493.621310) vcan0 158#0000000000000028
(1684363493.621364) vcan0 161#000005500108002B
(1684363493.621381) vcan0 191#010010A141001A
(1684363493.621395) vcan0 133#00000000B6
(1684363493.622694) vcan0 136#0002000000000039
(1684363493.622744) vcan0 13A#0000000000000037
(1684363493.622757) vcan0 13F#000000050000003D
(1684363493.622800) vcan0 164#0000C01AA8000013
(1684363493.622813) vcan0 17C#0000000010000030
(1684363493.622824) vcan0 18E#00007A
(1684363493.622836) vcan0 294#040B0002CF5A000E
(1684363493.624477) vcan0 21E#03E83745220601
(1684363493.624530) vcan0 309#00000000000000B1
(1684363493.624544) vcan0 183#0000000B0000103D
(1684363493.624545) vcan0 244#00000001F8
(1684363493.625766) vcan0 143#6B6B00FF
(1684363493.627391) vcan0 039#000C
(1684363493.627443) vcan0 095#800007F400000026
(1684363493.630488) vcan0 166#D0320036
(1684363493.632109) vcan0 158#0000000000000037
(1684363493.632161) vcan0 161#000005500108003A
(1684363493.632175) vcan0 191#010010A1410029
(1684363493.632188) vcan0 133#0000000089
(1684363493.632200) vcan0 136#000200000000000C
(1684363493.632213) vcan0 13A#000000000000000A
(1684363493.632225) vcan0 13F#0000000500000000
(1684363493.632237) vcan0 164#0000C01AA8000022
(1684363493.633859) vcan0 17C#0000000010000003
(1684363493.633926) vcan0 18E#00004D
(1684363493.633940) vcan0 1CF#80050000000F
(1684363493.633953) vcan0 1DC#0200000C
(1684363493.633965) vcan0 183#0000000800001003
(1684363493.635547) vcan0 143#6B6B00C2
(1684363493.637175) vcan0 095#800007F400000035
(1684363493.637237) vcan0 1A4#000000080000002F
(1684363493.638974) vcan0 1AA#7FFF000000006720
(1684363493.639012) vcan0 1B0#000F0000000166
(1684363493.639019) vcan0 1D0#000000000000000A
(1684363493.640401) vcan0 166#D0320009
(1684363493.640415) vcan0 244#000000015C
(1684363493.640441) vcan0 039#001B
(1684363493.641769) vcan0 158#000000000000000A
(1684363493.641795) vcan0 161#000005500108000D
(1684363493.641808) vcan0 191#010010A1410038
(1684363493.641821) vcan0 133#0000000098
(1684363493.641833) vcan0 136#000200000000001B
(1684363493.641843) vcan0 13A#0000000000000019
(1684363493.643721) vcan0 13F#000000050000001F
(1684363493.643838) vcan0 164#0000C01AA8000031
(1684363493.643855) vcan0 17C#0000000010000012
(1684363493.643869) vcan0 18E#00005C
(1684363493.645495) vcan0 183#0000000600001014
(1684363493.645544) vcan0 143#6B6B00D1
(1684363493.647232) vcan0 095#800007F400000008
(1684363493.650088) vcan0 166#D0320018
(1684363493.651181) vcan0 244#0000000120
(1684363493.651376) vcan0 158#0000000000000019
(1684363493.651394) vcan0 161#000005500108001C
(1684363493.651400) vcan0 191#010010A141000B
(1684363493.651406) vcan0 133#00000000A7
(1684363493.652765) vcan0 136#000200000000002A
(1684363493.652830) vcan0 13A#0000000000000028
(1684363493.652844) vcan0 13F#000000050000002E
(1684363493.652856) vcan0 164#0000C01AA8000004
(1684363493.652869) vcan0 17C#0000000010000021
(1684363493.652882) vcan0 18E#00006B
(1684363493.652892) vcan0 1CF#80050000001E
(1684363493.654607) vcan0 1DC#0200001B
(1684363493.654697) vcan0 183#0000000C0000102D
(1684363493.654712) vcan0 143#6B6B00E0
(1684363493.656351) vcan0 039#002A
(1684363493.658181) vcan0 095#800007F400000017
(1684363493.658235) vcan0 1A4#000000080000003E
(1684363493.658249) vcan0 1AA#7FFF00000000683E
(1684363493.658262) vcan0 1B0#000F0000000175
(1684363493.658275) vcan0 1D0#000000000000000A
(1684363493.660171) vcan0 166#D0320027
(1684363493.661857) vcan0 158#0000000000000028
(1684363493.661882) vcan0 161#000005500108002B
(1684363493.661896) vcan0 191#010010A141001A
(1684363493.661908) vcan0 133#00000000B6
(1684363493.661921) vcan0 136#0002000000000039
(1684363493.661932) vcan0 13A#0000000000000037
(1684363493.661972) vcan0 13F#000000050000003D
(1684363493.663618) vcan0 164#0000C01AA8000013
(1684363493.663677) vcan0 17C#0000000010000030
(1684363493.663690) vcan0 18E#00007A
(1684363493.663704) vcan0 294#040B0002CF5A001D
(1684363493.663717) vcan0 21E#03E83745220610
(1684363493.665269) vcan0 183#000000090000103F
(1684363493.665332) vcan0 143#6B6B00FF
(1684363493.667713) vcan0 244#0000000143
(1684363493.667863) vcan0 095#800007F400000026
(1684363493.670558) vcan0 166#D0320036
(1684363493.670625) vcan0 158#0000000000000037
(1684363493.671932) vcan0 161#000005500108003A
(1684363493.672014) vcan0 191#010010A1410029
(1684363493.672028) vcan0 133#0000000089
(1684363493.672039) vcan0 136#000200000000000C
(1684363493.672050) vcan0 13A#000000000000000A
(1684363493.672061) vcan0 13F#0000000500000000
(1684363493.673508) vcan0 164#0000C01AA8000022
(1684363493.673729) vcan0 17C#0000000010000003
(1684363493.673776) vcan0 18E#00004D
(1684363493.673783) vcan0 1CF#80050000002D
(1684363493.673789) vcan0 1DC#0200002A
(1684363493.675443) vcan0 183#0000000E0000100D
(1684363493.675528) vcan0 143#6B6B00C2
(1684363493.675543) vcan0 039#0039
(1684363493.675555) vcan0 333#0000000000003C
(1684363493.676976) vcan0 095#800007F400000035
(1684363493.678680) vcan0 1A4#0000000800000001
(1684363493.678727) vcan0 1AA#7FFF000000006801
(1684363493.678777) vcan0 1B0#000F0000000148
(1684363493.678791) vcan0 1D0#000000000000000A
(1684363493.679364) vcan0 244#00000001A0
(1684363493.680408) vcan0 166#D0320009
(1684363493.682362) vcan0 158#000000000000000A
(1684363493.682428) vcan0 161#000005500108000D
(1684363493.682438) vcan0 191#010010A1410038
(1684363493.682451) vcan0 133#0000000098
(1684363493.682461) vcan0 136#000200000000001B
(1684363493.682471) vcan0 13A#0000000000000019
(1684363493.682479) vcan0 13F#000000050000001F
(1684363493.682490) vcan0 164#0000C01AA8000031
(1684363493.682500) vcan0 17C#0000000010000012
(1684363493.683685) vcan0 18E#00005C
(1684363493.685064) vcan0 183#0000000A00001010
(1684363493.685142) vcan0 143#6B6B00D1
(1684363493.688435) vcan0 095#800007F400000008
(1684363493.688511) vcan0 305#8035
(1684363493.690195) vcan0 166#D0320018
(1684363493.690259) vcan0 244#00000001CF
(1684363493.691498) vcan0 158#0000000000000019
(1684363493.691561) vcan0 161#000005500108001C
(1684363493.691578) vcan0 191#010090A1410003
(1684363493.691592) vcan0 133#00000000A7
(1684363493.691604) vcan0 136#000200000000002A
(1684363493.692889) vcan0 13A#0000000000000028
(1684363493.692962) vcan0 13F#000000050000002E
(1684363493.692978) vcan0 164#0000C01AA8000004
(1684363493.692994) vcan0 17C#0000000010000021
(1684363493.693007) vcan0 18E#00006B
(1684363493.693019) vcan0 1CF#80050000003C
(1684363493.693032) vcan0 1DC#02000039
(1684363493.694374) vcan0 320#000030
(1684363493.694458) vcan0 324#7465000000000E38
(1684363493.694472) vcan0 37C#FD00FD00097F0038
(1684363493.694485) vcan0 183#0000000F0000102A
(1684363493.695825) vcan0 143#6B6B00E0
(1684363493.697285) vcan0 039#000C
(1684363493.697336) vcan0 095#800007F400000017
(1684363493.697352) vcan0 1A4#0000000800000010
(1684363493.699072) vcan0 1AA#7FFF000000006711
(1684363493.699155) vcan0 1B0#000F0000000157
(1684363493.699170) vcan0 1D0#000000000000000A
(1684363493.700522) vcan0 166#D0320027
(1684363493.700599) vcan0 158#0000000000000028
(1684363493.701779) vcan0 161#000005500108002B
(1684363493.701832) vcan0 191#010090A1410012
(1684363493.701844) vcan0 133#00000000B6
(1684363493.701861) vcan0 136#0002000000000039
(1684363493.701876) vcan0 13A#0000000000000037
(1684363493.703656) vcan0 13F#000000050000003D
(1684363493.703714) vcan0 164#0000C01AA8000013
(1684363493.703729) vcan0 17C#0000000010000030
(1684363493.703743) vcan0 18E#00007A
(1684363493.703756) vcan0 294#040B0002CF5A002C
(1684363493.703768) vcan0 21E#03E8374522062F
(1684363493.705566) vcan0 183#0000001300001034
(1684363493.705606) vcan0 143#6B6B00FF
(1684363493.706346) vcan0 244#00000001B0
(1684363493.706971) vcan0 095#800007F400000026
(1684363493.710187) vcan0 166#D0320036
(1684363493.710281) vcan0 039#001B
(1684363493.711837) vcan0 158#0000000000000037
(1684363493.711893) vcan0 161#000005500108003A
(1684363493.711909) vcan0 191#010090A1410021
(1684363493.711922) vcan0 133#0000000089
(1684363493.711936) vcan0 136#000200000000000C
(1684363493.711945) vcan0 13A#000000000000000A
(1684363493.713324) vcan0 13F#0000000500000000
(1684363493.713381) vcan0 164#0000C01AA8000022
(1684363493.713395) vcan0 17C#0000000010000003
(1684363493.713409) vcan0 18E#00004D
(1684363493.713423) vcan0 1CF#80050000000F
(1684363493.713434) vcan0 1DC#0200000C
(1684363493.715095) vcan0 183#0000000E0000100D
(1684363493.715907) vcan0 143#6B6B00C2
(1684363493.717450) vcan0 095#800007F400000035
(1684363493.717477) vcan0 244#0000000126
(1684363493.717519) vcan0 1A4#000000080000002F
(1684363493.717533) vcan0 1AA#7FFF000000006720
(1684363493.719102) vcan0 1B0#000F0000000166
(1684363493.719155) vcan0 1D0#000000000000000A
(1684363493.720461) vcan0 166#D0320009
(1684363493.722052) vcan0 158#000000000000000A
(1684363493.722071) vcan0 161#000005500108000D
(1684363493.722085) vcan0 191#010090A1410030
(1684363493.722114) vcan0 133#0000000098
(1684363493.722126) vcan0 136#000200000000001B
(1684363493.722137) vcan0 13A#0000000000000019
(1684363493.722148) vcan0 13F#000000050000001F
(1684363493.723442) vcan0 164#0000C01AA8000031
(1684363493.723494) vcan0 17C#0000000010000012
(1684363493.723507) vcan0 18E#00005C
(1684363493.723520) vcan0 309#0000000000000084
(1684363493.723545) vcan0 039#002A
(1684363493.725227) vcan0 183#0000000A00001010
(1684363493.725279) vcan0 143#6B6B00D1
(1684363493.728532) vcan0 095#800007F400000008
(1684363493.728555) vcan0 244#000000012D
(1684363493.729748) vcan0 166#D0320018
(1684363493.731431) vcan0 158#0000000000000019
(1684363493.731487) vcan0 161#000005500108001C
(1684363493.731504) vcan0 191#010090A1410003
(1684363493.731517) vcan0 133#00000000A7
(1684363493.731529) vcan0 136#000200000000002A
(1684363493.733122) vcan0 13A#0000000000000028
(1684363493.733182) vcan0 13F#000000050000002E
(1684363493.733189) vcan0 164#0000C01AA8000004
(1684363493.733195) vcan0 17C#0000000010000021
(1684363493.733201) vcan0 18E#00006B
(1684363493.733207) vcan0 1CF#80050000001E
(1684363493.733212) vcan0 1DC#0200001B
(1684363493.734944) vcan0 183#0000000700001022
(1684363493.735010) vcan0 143#6B6B00E0
(1684363493.737994) vcan0 095#800007F400000017
(1684363493.738063) vcan0 1A4#000000080000003E
(1684363493.738078) vcan0 1AA#7FFF00000000683E
(1684363493.738103) vcan0 039#0039
(1684363493.738117) vcan0 1B0#000F0000000175
(1684363493.739210) vcan0 244#000000014F
(1684363493.739453) vcan0 1D0#000000000000000A
(1684363493.739499) vcan0 166#D0320027
(1684363493.740839) vcan0 158#0000000000000028
(1684363493.740897) vcan0 161#000005500108002B
(1684363493.742084) vcan0 191#010090A1410012
(1684363493.742155) vcan0 133#00000000B6
(1684363493.742170) vcan0 136#0002000000000039
(1684363493.742186) vcan0 13A#0000000000000037
(1684363493.742201) vcan0 13F#000000050000003D
(1684363493.742212) vcan0 164#0000C01AA8000013
(1684363493.743840) vcan0 17C#0000000010000030
(1684363493.743915) vcan0 18E#00007A
(1684363493.743930) vcan0 294#040B0002CF5A003B
(1684363493.743948) vcan0 21E#03E8374522063E
(1684363493.745244) vcan0 183#0000000D0000103B
(1684363493.745292) vcan0 143#6B6B00FF
(1684363493.746996) vcan0 095#800007F400000026
(1684363493.750128) vcan0 166#D0320036
(1684363493.751942) vcan0 158#0000000000000037
(1684363493.752017) vcan0 161#000005500108003A
(1684363493.752032) vcan0 191#010090A1410021
(1684363493.752044) vcan0 133#0000000089
(1684363493.752055) vcan0 136#000200000000000C
(1684363493.752066) vcan0 13A#000000000000000A
(1684363493.752077) vcan0 13F#0000000500000000
(1684363493.752087) vcan0 039#000C
(1684363493.754131) vcan0 164#0000C01AA8000022
(1684363493.754184) vcan0 17C#0000000010000003
(1684363493.754199) vcan0 18E#00004D
(1684363493.754212) vcan0 1CF#80050000002D
(1684363493.754225) vcan0 1DC#0200002A
(1684363493.754236) vcan0 183#0000001100001009
(1684363493.755835) vcan0 143#6B6B00C2
(1684363493.755859) vcan0 244#0000000148
(1684363493.757237) vcan0 095#800007F400000035
(1684363493.757290) vcan0 1A4#0000000800000001
(1684363493.758935) vcan0 1AA#7FFF000000006801
(1684363493.758997) vcan0 1B0#000F0000000148
(1684363493.759012) vcan0 1D0#000000000000000A
(1684363493.760619) vcan0 166#D0320009
(1684363493.760682) vcan0 158#000000000000000A
(1684363493.761978) vcan0 161#000005500108000D
(1684363493.762042) vcan0 191#010090A1410030
(1684363493.762057) vcan0 133#0000000098
(1684363493.762073) vcan0 136#000200000000001B
(1684363493.762086) vcan0 13A#0000000000000019
(1684363493.762098) vcan0 13F#000000050000001F
(1684363493.763736) vcan0 164#0000C01AA8000031
(1684363493.763790) vcan0 17C#0000000010000012
(1684363493.763807) vcan0 18E#00005C
(1684363493.764984) vcan0 183#0000000C0000101E
(1684363493.765054) vcan0 143#6B6B00D1
(1684363493.766666) vcan0 039#001B
(1684363493.766821) vcan0 244#000000018E
(1684363493.767943) vcan0 095#800007F400000008
(1684363493.769427) vcan0 166#D0320018
(1684363493.771142) vcan0 158#0000000000000019
(1684363493.771201) vcan0 161#000005500108001C
(1684363493.771215) vcan0 191#010090A1410003
(1684363493.771228) vcan0 133#00000000A7
(1684363493.773046) vcan0 136#000200000000002A
(1684363493.773125) vcan0 13A#0000000000000028
(1684363493.773137) vcan0 13F#000000050000002E
(1684363493.773148) vcan0 164#0000C01AA8000004
(1684363493.773158) vcan0 17C#0000000010000021
(1684363493.773168) vcan0 18E#00006B
(1684363493.773177) vcan0 1CF#80050000003C
(1684363493.773186) vcan0 1DC#02000039
(1684363493.774849) vcan0 183#0000001000001028
(1684363493.774909) vcan0 143#6B6B00E0
(1684363493.776539) vcan0 333#0000000000000F
(1684363493.777709) vcan0 095#800007F400000017
(1684363493.777768) vcan0 1A4#0000000800000010
(1684363493.777780) vcan0 1AA#7FFF000000006711
(1684363493.777794) vcan0 1B0#000F0000000157
(1684363493.777871) vcan0 244#0000000166
(1684363493.778950) vcan0 1D0#000000000000000A
(1684363493.779085) vcan0 039#002A
(1684363493.780699) vcan0 166#D0320027
(1684363493.780757) vcan0 158#0000000000000028
(1684363493.782604) vcan0 161#000005500108002B
(1684363493.782679) vcan0 191#010090A1410012
(1684363493.782697) vcan0 133#00000000B6
(1684363493.782712) vcan0 136#0002000000000039
(1684363493.782725) vcan0 13A#0000000000000037
(1684363493.782736) vcan0 13F#000000050000003D
(1684363493.782748) vcan0 164#0000C01AA8000013
(1684363493.782761) vcan0 17C#0000000010000030
(1684363493.782774) vcan0 18E#00007A
(1684363493.784111) vcan0 294#040B0002CF5A000E
(1684363493.784195) vcan0 21E#03E83745220601
(1684363493.785633) vcan0 183#0000000C0000103C
(1684363493.785707) vcan0 143#6B6B00FF
(1684363493.787356) vcan0 095#800007F400000026
(1684363493.788524) vcan0 244#000000013E
(1684363493.790189) vcan0 166#D0320036
(1684363493.791953) vcan0 158#0000000000000037
(1684363493.792003) vcan0 161#000005500108003A
(1684363493.792019) vcan0 191#010090A1410021
(1684363493.792033) vcan0 133#0000000089
(1684363493.792046) vcan0 136#000200000000000C
(1684363493.792057) vcan0 13A#000000000000000A
(1684363493.792067) vcan0 039#0039
(1684363493.793851) vcan0 13F#0000000500000000
(1684363493.793908) vcan0 164#0000C01AA8000022
(1684363493.793920) vcan0 17C#0000000010000003
(1684363493.793932) vcan0 18E#00004D
(1684363493.793944) vcan0 1CF#80050000000F
(1684363493.793955) vcan0 1DC#0200000C
(1684363493.793965) vcan0 305#8008
(1684363493.793976) vcan0 320#000003
(1684363493.793987) vcan0 324#7465000000000E0B
(1684363493.794032) vcan0 37C#FD00FD00097F000B
(1684363493.795604) vcan0 183#0000000900001002
(1684363493.795652) vcan0 40C#033133383439000D
(1684363493.795659) vcan0 454#23EF09
(1684363493.795664) vcan0 143#6B6B00C2
(1684363493.797997) vcan0 095#800007F400000035
(1684363493.798052) vcan0 1A4#000000080000002F
(1684363493.798064) vcan0 1AA#7FFF000000006720
(1684363493.798075) vcan0 1B0#000F0000000166
(1684363493.798085) vcan0 1D0#000000000000000A
(1684363493.799222) vcan0 244#00000001CC
(1684363493.799785) vcan0 166#D0320009
(1684363493.801110) vcan0 158#000000000000000A
(1684363493.801158) vcan0 161#000005500108000D
(1684363493.801173) vcan0 191#010090A1410030
(1684363493.802805) vcan0 133#0000000098
(1684363493.802884) vcan0 136#000200000000001B
(1684363493.802898) vcan0 13A#0000000000000019
(1684363493.802911) vcan0 13F#000000050000001F
(1684363493.802922) vcan0 164#0000C01AA8000031
(1684363493.802932) vcan0 17C#0000000010000012
(1684363493.802943) vcan0 18E#00005C
(1684363493.805882) vcan0 183#0000000E0000101C
(1684363493.805976) vcan0 143#6B6B00D1
(1684363493.807658) vcan0 039#000C
(1684363493.807742) vcan0 095#800007F400000008
(1684363493.809374) vcan0 166#D0320018
(1684363493.810867) vcan0 158#0000000000000019
(1684363493.810970) vcan0 161#000005500108001C
(1684363493.810983) vcan0 244#0000000129
(1684363493.812309) vcan0 191#010090A1410003
(1684363493.812352) vcan0 133#00000000A7
(1684363493.812359) vcan0 136#000200000000002A
(1684363493.812365) vcan0 13A#0000000000000028
(1684363493.812371) vcan0 13F#000000050000002E
(1684363493.812378) vcan0 164#0000C01AA8000004
(1684363493.813784) vcan0 17C#0000000010000021
(1684363493.813846) vcan0 18E#00006B
(1684363493.813860) vcan0 1CF#80050000001E
(1684363493.813873) vcan0 1DC#0200001B
(1684363493.815528) vcan0 183#0000000A0000102F
(1684363493.815595) vcan0 143#6B6B00E0
(1684363493.817098) vcan0 095#800007F400000017
(1684363493.818611) vcan0 1A4#000000080000003E
(1684363493.818672) vcan0 1AA#7FFF00000000683E
(1684363493.818687) vcan0 1B0#000F0000000175
(1684363493.818702) vcan0 1D0#000000000000000A
(1684363493.820512) vcan0 166#D0320027
(1684363493.820585) vcan0 158#0000000000000028
(1684363493.821992) vcan0 161#000005500108002B
(1684363493.822011) vcan0 244#0000000159
(1684363493.822063) vcan0 191#010090A1410012
(1684363493.822077) vcan0 133#00000000B6
(1684363493.822089) vcan0 136#0002000000000039
(1684363493.822101) vcan0 13A#0000000000000037
(1684363493.822114) vcan0 039#001B
(1684363493.822125) vcan0 13F#000000050000003D
(1684363493.823498) vcan0 164#0000C01AA8000013
(1684363493.823683) vcan0 17C#0000000010000030
(1684363493.823850) vcan0 18E#00007A
(1684363493.823903) vcan0 294#040B0002CF5A001D
(1684363493.823916) vcan0 21E#03E83745220610
(1684363493.823929) vcan0 309#0000000000000093
(1684363493.823942) vcan0 428#01040000521C10
(1684363493.825721) vcan0 405#000004000000001A
(1684363493.825803) vcan0 183#0000000700001031
(1684363493.825817) vcan0 143#6B6B00FF
(1684363493.827605) vcan0 095#800007F400000026
(1684363493.829364) vcan0 166#D0320036
(1684363493.830815) vcan0 158#0000000000000037
(1684363493.830869) vcan0 161#000005500108003A
(1684363493.832488) vcan0 191#010090A1410021
(1684363493.832564) vcan0 133#0000000089
(1684363493.832579) vcan0 136#000200000000000C
(1684363493.832593) vcan0 13A#000000000000000A
(1684363493.832605) vcan0 13F#0000000500000000
(1684363493.832616) vcan0 164#0000C01AA8000022
(1684363493.832627) vcan0 17C#0000000010000003
(1684363493.832638) vcan0 18E#00004D
(1684363493.833091) vcan0 244#00000001B9
(1684363493.833777) vcan0 1CF#80050000002D
(1684363493.833799) vcan0 1DC#0200002A
(1684363493.835138) vcan0 183#0000000D0000100E
(1684363493.835166) vcan0 143#6B6B00C2
(1684363493.837005) vcan0 039#002A
(1684363493.837029) vcan0 095#800007F400000035
(1684363493.838171) vcan0 1A4#0000000800000001
(1684363493.838198) vcan0 1AA#7FFF000000006801
(1684363493.838210) vcan0 1B0#000F0000000148
(1684363493.838222) vcan0 1D0#000000000000000A
(1684363493.839515) vcan0 166#D0320009
(1684363493.841271) vcan0 158#000000000000000A
(1684363493.841286) vcan0 161#000005500108000D
(1684363493.841292) vcan0 191#010090A1410030
(1684363493.841303) vcan0 133#0000000098
(1684363493.842753) vcan0 136#000200000000001B
(1684363493.842779) vcan0 13A#0000000000000019
(1684363493.842793) vcan0 13F#000000050000001F
(1684363493.842806) vcan0 164#0000C01AA9000030
(1684363493.842817) vcan0 17C#0000000010000012
(1684363493.842828) vcan0 18E#00005C
(1684363493.844421) vcan0 244#00000001D8
(1684363493.846109) vcan0 183#0000000900001011
(1684363493.846140) vcan0 143#6B6B00D1
(1684363493.847879) vcan0 095#800007F400000008
(1684363493.849438) vcan0 166#D0320018
(1684363493.850929) vcan0 158#0000000000000019
(1684363493.850982) vcan0 161#000005500108001C
(1684363493.852790) vcan0 191#010090A1410003
(1684363493.852838) vcan0 133#00000000A7
(1684363493.852854) vcan0 136#000200000000002A
(1684363493.852868) vcan0 13A#0000000000000028
(1684363493.852881) vcan0 13F#000000050000002E
(1684363493.852893) vcan0 164#0000C01AA8000004
(1684363493.852904) vcan0 17C#0000000010000021
(1684363493.852914) vcan0 18E#00006B
(1684363493.852926) vcan0 1CF#80050000003C
(1684363493.854683) vcan0 1DC#02000039
(1684363493.854730) vcan0 183#0000000E0000102B
(1684363493.854746) vcan0 143#6B6B00E0
(1684363493.856455) vcan0 039#0039
(1684363493.857847) vcan0 095#800007F400000017
(1684363493.857861) vcan0 1A4#0000000800000010
(1684363493.857867) vcan0 1AA#7FFF000000006711
(1684363493.857873) vcan0 1B0#000F0000000157
(1684363493.859575) vcan0 1D0#000000000000000A
(1684363493.859623) vcan0 166#D0320027
(1684363493.860274) vcan0 244#00000001D9
(1684363493.860903) vcan0 158#0000000000000028
(1684363493.860948) vcan0 161#000005500108002B
(1684363493.862631) vcan0 191#010090A1410012
(1684363493.862690) vcan0 133#00000000B6
(1684363493.862706) vcan0 136#0002000000000039
(1684363493.862720) vcan0 13A#0000000000000037
(1684363493.862731) vcan0 13F#000000050000003D
(1684363493.862744) vcan0 164#0000C01AA8000013
(1684363493.862754) vcan0 17C#0000000010000030
(1684363493.862765) vcan0 18E#00007A
(1684363493.864221) vcan0 294#040B0002CF5A002C
(1684363493.864236) vcan0 21E#03E8374522062F
(1684363493.865945) vcan0 183#0000000A0000103E
(1684363493.865977) vcan0 143#6B6B00FF
(1684363493.867849) vcan0 095#800007F400000026
(1684363493.869560) vcan0 039#000C
(1684363493.869573) vcan0 166#D0320036
(1684363493.871315) vcan0 158#0000000000000037
(1684363493.871329) vcan0 161#000005500108003A
(1684363493.871335) vcan0 191#010090A1410021
(1684363493.871341) vcan0 133#0000000089
(1684363493.871453) vcan0 244#00000001D3
(1684363493.872963) vcan0 136#000200000000000C
(1684363493.872994) vcan0 13A#000000000000000A
(1684363493.873005) vcan0 13F#0000000500000000
(1684363493.873017) vcan0 164#0000C01AA8000022
(1684363493.873029) vcan0 17C#0000000010000003
(1684363493.873040) vcan0 18E#00004D
(1684363493.873052) vcan0 1CF#80050000000F
(1684363493.873064) vcan0 1DC#0200000C
(1684363493.874166) vcan0 183#0000000700001004
(1684363493.875646) vcan0 143#6B6B00C2
(1684363493.875704) vcan0 333#0000000000001E
(1684363493.877187) vcan0 095#800007F400000035
(1684363493.877236) vcan0 1A4#000000080000002F
(1684363493.878726) vcan0 1AA#7FFF000000006720
(1684363493.878764) vcan0 1B0#000F0000000166
(1684363493.878771) vcan0 1D0#000000000000000A
(1684363493.879978) vcan0 166#D0320009
(1684363493.881648) vcan0 158#000000000000000A
(1684363493.881716) vcan0 161#000005500108000D
(1684363493.881729) vcan0 191#010090A1410030
(1684363493.881740) vcan0 133#0000000098
(1684363493.881753) vcan0 136#000200000000001B
(1684363493.881765) vcan0 13A#0000000000000019
(1684363493.882497) vcan0 244#00000001B1
(1684363493.883377) vcan0 13F#000000050000001F
(1684363493.883406) vcan0 164#0000C01AA8000031
(1684363493.883418) vcan0 039#001B
(1684363493.883431) vcan0 17C#0000000010000012
(1684363493.883444) vcan0 18E#00005C
(1684363493.885167) vcan0 183#0000000D0000101D
(1684363493.885215) vcan0 143#6B6B00D1
(1684363493.888284) vcan0 095#800007F400000008
(1684363493.889638) vcan0 166#D0320018
(1684363493.891361) vcan0 158#0000000000000019
(1684363493.891376) vcan0 161#000005500108001C
(1684363493.891382) vcan0 191#010090A1410003
(1684363493.891388) vcan0 133#00000000A7
(1684363493.893007) vcan0 136#000200000000002A
(1684363493.893048) vcan0 13A#0000000000000028
(1684363493.893095) vcan0 13F#000000050000002E
(1684363493.893106) vcan0 164#0000C01AA8000004
(1684363493.893119) vcan0 17C#0000000010000021
(1684363493.893130) vcan0 18E#00006B
(1684363493.893140) vcan0 1CF#80050000001E
(1684363493.893152) vcan0 1DC#0200001B
(1684363493.893178) vcan0 320#000012
(1684363493.893527) vcan0 244#00000001FD
(1684363493.894475) vcan0 324#7465000000000E1A
(1684363493.894517) vcan0 37C#FD00FD00097F001A
(1684363493.894528) vcan0 183#0000000900001020
(1684363493.896021) vcan0 143#6B6B00E0
(1684363493.896084) vcan0 039#002A
(1684363493.896096) vcan0 305#8017
(1684363493.897277) vcan0 095#800007F400000017
(1684363493.897333) vcan0 1A4#000000080000003E
(1684363493.899051) vcan0 1AA#7FFF00000000683E
(1684363493.899091) vcan0 1B0#000F0000000175
(1684363493.899103) vcan0 1D0#000000000000000A
(1684363493.900559) vcan0 166#D0320027
(1684363493.900639) vcan0 158#0000000000000028
(1684363493.902158) vcan0 161#000005500108002B
(1684363493.902229) vcan0 191#010090A1410012
(1684363493.902244) vcan0 133#00000000B6
(1684363493.902258) vcan0 136#0002000000000039
(1684363493.902271) vcan0 13A#0000000000000037
(1684363493.902282) vcan0 13F#000000050000003D
(1684363493.902293) vcan0 164#0000C01AA8000013
(1684363493.903697) vcan0 17C#0000000010000030
(1684363493.903822) vcan0 18E#00007A
(1684363493.903862) vcan0 294#040B0002CF5A003B
(1684363493.903937) vcan0 21E#03E8374522063E
(1684363493.904514) vcan0 244#0000000102
(1684363493.905404) vcan0 183#0000000E0000103A
(1684363493.905458) vcan0 143#6B6B00FF
(1684363493.908174) vcan0 095#800007F400000026
(1684363493.909624) vcan0 166#D0320036
(1684363493.911647) vcan0 158#0000000000000037
(1684363493.911725) vcan0 161#000005500108003A
(1684363493.911740) vcan0 191#010090A1410021
(1684363493.911752) vcan0 039#0039
(1684363493.911766) vcan0 133#0000000089
(1684363493.911777) vcan0 136#000200000000000C
(1684363493.913255) vcan0 13A#000000000000000A
(1684363493.913315) vcan0 13F#0000000500000000
(1684363493.913327) vcan0 164#0000C01AA8000022
(1684363493.913338) vcan0 17C#0000000010000003
(1684363493.913349) vcan0 18E#00004D
(1684363493.913359) vcan0 1CF#80050000002D
(1684363493.913369) vcan0 1DC#0200002A
(1684363493.914957) vcan0 183#0000000A00001001
(1684363493.915032) vcan0 143#6B6B00C2
(1684363493.915923) vcan0 244#00000001A7
(1684363493.917787) vcan0 095#800007F400000035
(1684363493.917857) vcan0 1A4#0000000800000001
(1684363493.917903) vcan0 1AA#7FFF000000006801
(1684363493.917976) vcan0 1B0#000F0000000148
(1684363493.918048) vcan0 1D0#000000000000000A
(1684363493.919882) vcan0 166#D0320009
(1684363493.921224) vcan0 158#000000000000000A
(1684363493.921263) vcan0 161#000005500108000D
(1684363493.921299) vcan0 191#010090A1410030
(1684363493.921306) vcan0 133#0000000098
(1684363493.922891) vcan0 136#000200000000001B
(1684363493.922936) vcan0 13A#0000000000000019
(1684363493.922942) vcan0 13F#000000050000001F
(1684363493.922948) vcan0 164#0000C01AA8000031
(1684363493.922954) vcan0 17C#0000000010000012
(1684363493.922960) vcan0 18E#00005C
(1684363493.922966) vcan0 309#00000000000000A2
(1684363493.927175) vcan0 183#0000000700001013
(1684363493.927173) vcan0 244#000000014C
(1684363493.927208) vcan0 143#6B6B00D1
(1684363493.927220) vcan0 039#000C
(1684363493.927231) vcan0 095#800007F400000008
(1684363493.930340) vcan0 166#D0320018
(1684363493.932005) vcan0 158#0000000000000019
(1684363493.932077) vcan0 161#000005500108001C
(1684363493.932090) vcan0 191#010090A1410003
(1684363493.932102) vcan0 133#00000000A7
(1684363493.932114) vcan0 136#000200000000002A
(1684363493.932126) vcan0 13A#0000000000000028
(1684363493.932142) vcan0 13F#000000050000002E
(1684363493.933864) vcan0 164#0000C01AA8000004
(1684363493.933934) vcan0 17C#0000000010000021
(1684363493.933973) vcan0 18E#00006B
(1684363493.934021) vcan0 1CF#80050000003C
(1684363493.934057) vcan0 1DC#02000039
(1684363493.934119) vcan0 183#0000000500001024
(1684363493.935941) vcan0 143#6B6B00E0
(1684363493.938183) vcan0 095#800007F400000017
(1684363493.938207) vcan0 1A4#0000000800000010
(1684363493.938236) vcan0 1AA#7FFF000000006711
(1684363493.938249) vcan0 1B0#000F0000000157
(1684363493.938263) vcan0 1D0#000000000000000A
(1684363493.938275) vcan0 039#001B
(1684363493.938305) vcan0 244#00000001CE
(1684363493.939570) vcan0 166#D0320027
(1684363493.941213) vcan0 158#0000000000000028
(1684363493.941271) vcan0 161#000005500108002B
(1684363493.941288) vcan0 191#010090A1410012
(1684363493.941302) vcan0 133#00000000B6
(1684363493.942682) vcan0 136#0002000000000039
(1684363493.942774) vcan0 13A#0000000000000037
(1684363493.942785) vcan0 13F#000000050000003D
(1684363493.942795) vcan0 164#0000C01AA8000013
(1684363493.942807) vcan0 17C#0000000010000030
(1684363493.942819) vcan0 18E#00007A
(1684363493.942832) vcan0 294#040B0002CF5A000E
(1684363493.944435) vcan0 21E#03E83745220601
(1684363493.944538) vcan0 183#0000000300001035
(1684363493.945708) vcan0 143#6B6B00FF
(1684363493.947200) vcan0 095#800007F400000026
(1684363493.950059) vcan0 166#D0320036
(1684363493.950071) vcan0 244#0000000121
(1684363493.951712) vcan0 158#0000000000000037
(1684363493.951766) vcan0 161#000005500108003A
(1684363493.951775) vcan0 191#010090A1410021
(1684363493.951781) vcan0 133#0000000089
(1684363493.951787) vcan0 136#000200000000000C
(1684363493.951793) vcan0 13A#000000000000000A
(1684363493.953253) vcan0 13F#0000000500000000
(1684363493.953354) vcan0 164#0000C01AA8000022
(1684363493.953488) vcan0 17C#0000000010000003
(1684363493.953544) vcan0 18E#00004D
(1684363493.953599) vcan0 1CF#80050000000F
(1684363493.953613) vcan0 1DC#0200000C
(1684363493.955341) vcan0 183#0000000A00001001
(1684363493.955386) vcan0 039#002A
(1684363493.955400) vcan0 143#6B6B00C2
(1684363493.957118) vcan0 095#800007F400000035
(1684363493.958772) vcan0 1A4#000000080000002F
(1684363493.958822) vcan0 1AA#7FFF000000006720
(1684363493.958838) vcan0 1B0#000F0000000166
(1684363493.958853) vcan0 1D0#000000000000000A
(1684363493.960651) vcan0 166#D0320009
(1684363493.960751) vcan0 158#000000000000000A
(1684363493.960915) vcan0 244#000000016E
(1684363493.961955) vcan0 161#000005500108000D
(1684363493.962021) vcan0 191#010090A1410030
(1684363493.962035) vcan0 133#0000000098
(1684363493.962048) vcan0 136#000200000000001B
(1684363493.962060) vcan0 13A#0000000000000019
(1684363493.962072) vcan0 13F#000000050000001F
(1684363493.963822) vcan0 164#0000C01AA8000031
(1684363493.963888) vcan0 17C#0000000010000012
(1684363493.963900) vcan0 18E#00005C
(1684363493.965311) vcan0 183#0000000700001013
(1684363493.965353) vcan0 143#6B6B00D1
(1684363493.967928) vcan0 095#800007F400000008
(1684363493.967996) vcan0 039#0039
(1684363493.969478) vcan0 166#D0320018
(1684363493.971376) vcan0 158#0000000000000019
(1684363493.971454) vcan0 161#000005500108001C
(1684363493.971467) vcan0 191#010090A1410003
(1684363493.971480) vcan0 133#00000000A7
(1684363493.971498) vcan0 136#000200000000002A
(1684363493.972381) vcan0 244#00000001A6
(1684363493.972814) vcan0 13A#0000000000000028
(1684363493.972859) vcan0 13F#000000050000002E
(1684363493.972875) vcan0 164#0000C01AA8000004
(1684363493.972890) vcan0 17C#0000000010000021
(1684363493.972903) vcan0 18E#00006B
(1684363493.972916) vcan0 1CF#80050000001E
(1684363493.974130) vcan0 1DC#0200001B
(1684363493.974174) vcan0 183#0000000500001024
(1684363493.976110) vcan0 143#6B6B00E0
(1684363493.976215) vcan0 333#0000000000002D
(1684363493.977944) vcan0 095#800007F400000017
(1684363493.978011) vcan0 1A4#000000080000003E
(1684363493.978025) vcan0 1AA#7FFF00000000683E
(1684363493.978038) vcan0 1B0#000F0000000175
(1684363493.978097) vcan0 1D0#000000000000000A
(1684363493.980420) vcan0 166#D0320027
(1684363493.980585) vcan0 158#0000000000000028
(1684363493.982177) vcan0 161#000005500108002B
(1684363493.982249) vcan0 191#010090A1410012
(1684363493.982265) vcan0 133#00000000B6
(1684363493.982278) vcan0 136#0002000000000039
(1684363493.982290) vcan0 13A#0000000000000037
(1684363493.982303) vcan0 13F#000000050000003D
(1684363493.982316) vcan0 164#0000C01AA8000013
(1684363493.983820) vcan0 17C#0000000010000030
(1684363493.983885) vcan0 18E#00007A
(1684363493.983892) vcan0 294#040B0002CF5A001D
(1684363493.983898) vcan0 21E#03E83745220610
(1684363493.985105) vcan0 183#0000000B0000103D
(1684363493.985170) vcan0 143#6B6B00FF
(1684363493.987149) vcan0 095#800007F400000026
(1684363493.988842) vcan0 039#000C
(1684363493.988912) vcan0 244#00000001BB
(1684363493.990539) vcan0 166#D0320036
(1684363493.990605) vcan0 158#0000000000000037
(1684363493.992401) vcan0 161#000005500108003A
(1684363493.992479) vcan0 191#010010A1410029
(1684363493.992493) vcan0 133#0000000089
(1684363493.992505) vcan0 136#000200000000000C
(1684363493.992516) vcan0 13A#000000000000000A
(1684363493.992527) vcan0 13F#0000000500000000
(1684363493.992538) vcan0 164#0000C01AA8000022
(1684363493.992548) vcan0 17C#0000000010000003
(1684363493.992593) vcan0 18E#00004D
(1684363493.993730) vcan0 1CF#80050000002D
(1684363493.994165) vcan0 1DC#0200002A
(1684363493.994179) vcan0 320#000021
(1684363493.994191) vcan0 324#7465000000000E29
(1684363493.994209) vcan0 37C#FD00FD00097F0029
(1684363493.994221) vcan0 183#0000000800001003
(1684363493.995932) vcan0 143#6B6B00C2
(1684363493.997978) vcan0 095#800007F400000035
(1684363493.998038) vcan0 1A4#0000000800000001
(1684363493.998050) vcan0 1AA#7FFF000000006801
(1684363493.998062) vcan0 1B0#000F0000000148
(1684363493.998073) vcan0 1D0#000000000000000A
(1684363493.999708) vcan0 166#D0320009
(1684363493.999872) vcan0 244#0000000102
(1684363494.001506) vcan0 158#000000000000000A
(1684363494.001568) vcan0 161#000005500108000D
(1684363494.001582) vcan0 039#001B
(1684363494.001594) vcan0 191#010010A1410038
(1684363494.001608) vcan0 133#0000000098
(1684363494.001619) vcan0 136#000200000000001B
(1684363494.003972) vcan0 13A#0000000000000019
(1684363494.004093) vcan0 13F#000000050000001F
(1684363494.004113) vcan0 164#0000C01AA8000031
(1684363494.004127) vcan0 17C#0000000010000012
(1684363494.004141) vcan0 18E#00005C
(1684363494.004155) vcan0 305#8026
(1684363494.005960) vcan0 183#0000000600001014
(1684363494.006036) vcan0 143#6B6B00D1
(1684363494.007792) vcan0 095#800007F400000008
(1684363494.009573) vcan0 166#D0320018
(1684363494.010736) vcan0 244#00000001A0
(1684363494.011241) vcan0 158#0000000000000019
(1684363494.011299) vcan0 161#000005500108001C
(1684363494.011312) vcan0 191#010010A141000B
(1684363494.011323) vcan0 133#00000000A7
(1684363494.012865) vcan0 136#000200000000002A
(1684363494.012926) vcan0 13A#0000000000000028
(1684363494.012939) vcan0 13F#000000050000002E
(1684363494.012951) vcan0 164#0000C01AA8000004
(1684363494.012962) vcan0 17C#0000000010000021
(1684363494.012975) vcan0 18E#00006B
(1684363494.012986) vcan0 1CF#80050000003C
(1684363494.012999) vcan0 1DC#02000039
(1684363494.014580) vcan0 183#0000000C0000102D
(1684363494.014639) vcan0 143#6B6B00E0
(1684363494.015958) vcan0 039#002A
(1684363494.017290) vcan0 095#800007F400000017
(1684363494.017352) vcan0 1A4#0000000800000010
(1684363494.018603) vcan0 1AA#7FFF000000006711
(1684363494.018667) vcan0 1B0#000F0000000157
(1684363494.018681) vcan0 1D0#000000000000000A
(1684363494.020484) vcan0 166#D0320027
(1684363494.020564) vcan0 158#0000000000000028
(1684363494.021620) vcan0 244#00000001F7
(1684363494.022059) vcan0 161#000005500108002B
(1684363494.022103) vcan0 191#010010A141001A
(1684363494.022118) vcan0 133#00000000B6
(1684363494.022133) vcan0 136#0002000000000039
(1684363494.022146) vcan0 13A#0000000000000037
(1684363494.022158) vcan0 13F#000000050000003D
(1684363494.023404) vcan0 164#0000C01AA8000013
(1684363494.023604) vcan0 17C#0000000010000030
(1684363494.023673) vcan0 18E#00007A
(1684363494.023687) vcan0 294#040B0002CF5A002C
(1684363494.023727) vcan0 21E#03E8374522062F
(1684363494.023764) vcan0 309#00000000000000B1
(1684363494.025055) vcan0 183#000000090000103F
(1684363494.025140) vcan0 143#6B6B00FF
(1684363494.028024) vcan0 095#800007F400000026
(1684363494.029798) vcan0 166#D0320036
(1684363494.031241) vcan0 158#0000000000000037
(1684363494.031283) vcan0 161#000005500108003A
(1684363494.031290) vcan0 191#010010A1410029
(1684363494.031296) vcan0 039#0039
(1684363494.032883) vcan0 133#0000000089
(1684363494.032945) vcan0 244#0000000161
(1684363494.032957) vcan0 136#000200000000000C
(1684363494.032971) vcan0 13A#000000000000000A
(1684363494.032983) vcan0 13F#0000000500000000
(1684363494.032994) vcan0 164#0000C01AA8000022
(1684363494.033007) vcan0 17C#0000000010000003
(1684363494.033019) vcan0 18E#00004D
(1684363494.033033) vcan0 1CF#80050000000F
(1684363494.034880) vcan0 1DC#0200000C
(1684363494.034940) vcan0 183#0000000E0000100D
(1684363494.034952) vcan0 143#6B6B00C2
(1684363494.037041) vcan0 095#800007F400000035
(1684363494.038618) vcan0 1A4#000000080000002F
(1684363494.038729) vcan0 1AA#7FFF000000006720
(1684363494.038743) vcan0 1B0#000F0000000166
(1684363494.038758) vcan0 1D0#000000000000000A
(1684363494.040396) vcan0 166#D0320009
(1684363494.042042) vcan0 158#000000000000000A
(1684363494.042153) vcan0 161#000005500108000D
(1684363494.042169) vcan0 191#010010A1410038
(1684363494.042180) vcan0 133#0000000098
(1684363494.042191) vcan0 136#000200000000001B
(1684363494.042201) vcan0 13A#0000000000000019
(1684363494.042212) vcan0 13F#000000050000001F
(1684363494.042222) vcan0 164#0000C01AA8000031
(1684363494.043900) vcan0 17C#0000000010000012
(1684363494.043987) vcan0 18E#00005C
(1684363494.044370) vcan0 244#000000015B
(1684363494.045465) vcan0 039#000C
(1684363494.045533) vcan0 183#0000000A00001010
(1684363494.045548) vcan0 143#6B6B00D1
(1684363494.046972) vcan0 095#800007F800000004
(1684363494.050035) vcan0 166#D0320018
(1684363494.051727) vcan0 158#0000000000000019
(1684363494.051809) vcan0 161#000005500108001C
(1684363494.051828) vcan0 191#010010A141000B
(1684363494.051840) vcan0 133#00000000A7
(1684363494.051854) vcan0 136#000200000000002A
(1684363494.051866) vcan0 13A#0000000000000028
(1684363494.054544) vcan0 13F#000000050000002E
(1684363494.054617) vcan0 164#0000C01AA8000004
(1684363494.054632) vcan0 17C#0000000010000021
(1684363494.054645) vcan0 18E#00006B
(1684363494.054658) vcan0 1CF#80050000001E
(1684363494.054670) vcan0 1DC#0200001B
(1684363494.054682) vcan0 183#0000000700001022
(1684363494.054693) vcan0 143#6B6B00E0
(1684363494.055722) vcan0 244#0000000164
(1684363494.057436) vcan0 095#800007F800000013
(1684363494.057494) vcan0 1A4#000000080000003E
(1684363494.059145) vcan0 1AA#7FFF00000000683E
(1684363494.059226) vcan0 1B0#000F0000000175
(1684363494.059239) vcan0 1D0#000000000000000A
(1684363494.060671) vcan0 166#D0320027
(1684363494.060786) vcan0 039#001B
(1684363494.060799) vcan0 158#0000000000000028
(1684363494.060811) vcan0 161#000005500108002B
(1684363494.062036) vcan0 191#010010A141001A
(1684363494.062089) vcan0 133#00000000B6
(1684363494.062096) vcan0 136#0002000000000039
(1684363494.062102) vcan0 13A#0000000000000037
(1684363494.062108) vcan0 13F#000000050000003D
(1684363494.063515) vcan0 164#0000C01AA8000013
(1684363494.063569) vcan0 17C#0000000010000030
(1684363494.063586) vcan0 18E#00007A
(1684363494.063599) vcan0 294#040B0002CF5A003B
(1684363494.063611) vcan0 21E#03E8374522063E
(1684363494.064992) vcan0 183#0000000D0000103B
(1684363494.065137) vcan0 143#6B6B00FF
(1684363494.067326) vcan0 095#800007F800000022
(1684363494.068065) vcan0 244#00000001AF
(1684363494.070918) vcan0 166#D0320036
(1684363494.070979) vcan0 158#0000000000000037
(1684363494.070993) vcan0 161#000005500108003A
(1684363494.072614) vcan0 191#010010A1410029
(1684363494.072683) vcan0 133#0000000089
(1684363494.072699) vcan0 136#000200000000000C
(1684363494.072715) vcan0 13A#000000000000000A
(1684363494.072727) vcan0 13F#0000000500000000
(1684363494.072739) vcan0 164#0000C01AA8000022
(1684363494.072751) vcan0 17C#0000000010000003
(1684363494.072761) vcan0 18E#00004D
(1684363494.072806) vcan0 1CF#80050000002D
(1684363494.073940) vcan0 1DC#0200002A
(1684363494.073991) vcan0 039#002A
(1684363494.075698) vcan0 183#0000000900001002
(1684363494.075772) vcan0 143#6B6B00C2
(1684363494.075780) vcan0 333#0000000000003C
(1684363494.077148) vcan0 095#800007F800000031
(1684363494.077287) vcan0 1A4#0000000800000001
(1684363494.079010) vcan0 1AA#7FFF000000006801
(1684363494.079073) vcan0 1B0#000F0000000148
(1684363494.079089) vcan0 1D0#000000000000000A
(1684363494.079323) vcan0 244#000000011E
(1684363494.080809) vcan0 166#D0320009
(1684363494.080857) vcan0 158#000000000000000A
(1684363494.080873) vcan0 161#000005500108000D
(1684363494.082041) vcan0 191#010010A1410038
(1684363494.082099) vcan0 133#0000000098
(1684363494.082110) vcan0 136#000200000000001B
(1684363494.082119) vcan0 13A#0000000000000019
(1684363494.082128) vcan0 13F#000000050000001F
(1684363494.084347) vcan0 164#0000C01AA8000031
(1684363494.084415) vcan0 17C#0000000010000012
(1684363494.084431) vcan0 18E#00005C
(1684363494.086441) vcan0 183#0000000E0000101C
(1684363494.086522) vcan0 143#6B6B00D1
(1684363494.088324) vcan0 095#800007F800000004
(1684363494.090026) vcan0 166#D0320018
(1684363494.091865) vcan0 158#0000000000000019
(1684363494.091935) vcan0 161#000005500108001C
(1684363494.091951) vcan0 191#010010A141000B
(1684363494.091979) vcan0 133#00000000A7
(1684363494.091993) vcan0 136#000200000000002A
(1684363494.092006) vcan0 13A#0000000000000028
(1684363494.092017) vcan0 13F#000000050000002E
(1684363494.094010) vcan0 164#0000C01AA8000004
(1684363494.094068) vcan0 17C#0000000010000021
(1684363494.094085) vcan0 18E#00006B
(1684363494.094130) vcan0 1CF#80050000003C
(1684363494.094144) vcan0 039#0039
(1684363494.094159) vcan0 1DC#02000039
(1684363494.094170) vcan0 320#000030
(1684363494.094181) vcan0 324#7465000000000E38
(1684363494.094191) vcan0 37C#FD00FD00097F0038
(1684363494.094237) vcan0 40C#0000000004000013
(1684363494.094248) vcan0 183#0000000A0000102F
(1684363494.095696) vcan0 244#00000001AD
(1684363494.095739) vcan0 454#23EF18
(1684363494.095867) vcan0 143#6B6B00E0
(1684363494.097713) vcan0 095#800007F800000013
(1684363494.097774) vcan0 1A4#0000000800000010
(1684363494.097788) vcan0 1AA#7FFF000000006711
(1684363494.097801) vcan0 1B0#000F0000000157
(1684363494.099313) vcan0 1D0#000000000000000A
(1684363494.099382) vcan0 166#D0320027
(1684363494.100880) vcan0 158#0000000000000028
(1684363494.100948) vcan0 161#000005500108002B
(1684363494.103151) vcan0 191#010010A141001A
(1684363494.103198) vcan0 133#00000000B6
(1684363494.103205) vcan0 136#0002000000000039
(1684363494.103211) vcan0 13A#0000000000000037
(1684363494.103217) vcan0 13F#000000050000003D
(1684363494.103222) vcan0 164#0000C01AA8000013
(1684363494.103228) vcan0 17C#0000000010000030
(1684363494.103235) vcan0 18E#00007A
(1684363494.103241) vcan0 294#040B0002CF5A000E
(1684363494.103248) vcan0 21E#03E83745220601
(1684363494.105040) vcan0 183#0000000700001031
(1684363494.105064) vcan0 143#6B6B00FF
(1684363494.106234) vcan0 039#000C
(1684363494.107397) vcan0 244#000000019B
(1684363494.107752) vcan0 305#8035
(1684363494.107827) vcan0 095#800007F800000022
(1684363494.110281) vcan0 166#D0320036
(1684363494.112123) vcan0 158#0000000000000037
(1684363494.112158) vcan0 161#000005500108003A
(1684363494.112165) vcan0 191#010010A1410029
(1684363494.112170) vcan0 133#0000000089
(1684363494.112176) vcan0 136#000200000000000C
(1684363494.112183) vcan0 13A#000000000000000A
(1684363494.112190) vcan0 13F#0000000500000000
(1684363494.112196) vcan0 164#0000C01AA8000022
(1684363494.113252) vcan0 188#00000000
(1684363494.113473) vcan0 17C#0000000010000003
(1684363494.113488) vcan0 18E#00004D
(1684363494.113506) vcan0 1CF#80050000000F
(1684363494.113518) vcan0 1DC#0200000C
(1684363494.115024) vcan0 183#0000000D0000100E
(1684363494.115057) vcan0 143#6B6B00C2
(1684363494.118434) vcan0 095#800007F800000031
(1684363494.118461) vcan0 1A4#000000080000002F
(1684363494.118467) vcan0 1AA#7FFF000000006720
(1684363494.118473) vcan0 1B0#000F0000000166
(1684363494.118479) vcan0 1D0#000000000000000A
(1684363494.119115) vcan0 244#0000000183
(1684363494.120060) vcan0 166#D0320009
(1684363494.121890) vcan0 158#000000000000000A
(1684363494.121951) vcan0 161#000005500108000D
(1684363494.121958) vcan0 039#001B
(1684363494.121964) vcan0 191#010010A1410038
(1684363494.121971) vcan0 133#0000000098
(1684363494.121977) vcan0 136#000200000000001B
(1684363494.121982) vcan0 13A#0000000000000019
(1684363494.123746) vcan0 13F#000000050000001F
(1684363494.123761) vcan0 164#0000C01AA8000031
(1684363494.123767) vcan0 17C#0000000010000012
(1684363494.123773) vcan0 18E#00005C
(1684363494.123778) vcan0 309#0000000000000084
(1684363494.123784) vcan0 428#01040000521C2F
(1684363494.123790) vcan0 405#0000040000000029
(1684363494.125499) vcan0 183#0000000900001011
(1684363494.125537) vcan0 143#6B6B00D1
(1684363494.127154) vcan0 095#800007F800000004
(1684363494.130182) vcan0 166#D0320018
(1684363494.130269) vcan0 244#00000001D7
(1684363494.131988) vcan0 158#0000000000000019
(1684363494.132015) vcan0 161#000005500108001C
(1684363494.132028) vcan0 191#010010A141000B
(1684363494.132039) vcan0 133#00000000A7
(1684363494.132050) vcan0 136#000200000000002A
(1684363494.132060) vcan0 13A#0000000000000028
(1684363494.132071) vcan0 13F#000000050000002E
(1684363494.134014) vcan0 164#0000C01AA8000004
(1684363494.134109) vcan0 17C#0000000010000021
(1684363494.134123) vcan0 18E#00006B
(1684363494.135006) vcan0 1CF#80050000001E
(1684363494.135041) vcan0 1DC#0200001B
(1684363494.135171) vcan0 183#0000000600001023
(1684363494.135218) vcan0 143#6B6B00E0
(1684363494.137266) vcan0 039#002A
(1684363494.137317) vcan0 095#800007F800000013
(1684363494.137333) vcan0 1A4#000000080000003E
(1684363494.140923) vcan0 166#D0320009
(1684363494.140977) vcan0 158#000000000000000A
(1684363494.140994) vcan0 161#000005500108000D
(1684363494.141003) vcan0 191#010090A1410030
(1684363494.142078) vcan0 18E#00005C
(1684363494.142130) vcan0 133#0000000098
(1684363494.142143) vcan0 136#000200000000001B
(1684363494.142178) vcan0 13A#0000000000000019
(1684363494.142191) vcan0 13F#000000050000001F
(1684363494.143900) vcan0 164#0000C01AA8000031
(1684363494.143950) vcan0 17C#0000000010000012
(1684363494.143956) vcan0 183#0000000E0000101C
(1684363494.145698) vcan0 039#000C
(1684363494.145752) vcan0 143#6B6B00D1
(1684363494.146451) vcan0 244#000000019E
(1684363494.147384) vcan0 095#800007F400000008
(1684363494.150304) vcan0 166#D0320018
(1684363494.151840) vcan0 158#0000000000000019
(1684363494.151917) vcan0 161#000005500108001C
(1684363494.151934) vcan0 191#010090A1410003
(1684363494.151948) vcan0 164#0000C01AA8000004
(1684363494.151963) vcan0 133#00000000A7
(1684363494.151977) vcan0 136#000200000000002A
(1684363494.151992) vcan0 13A#0000000000000028
(1684363494.154028) vcan0 13F#000000050000002E
(1684363494.154126) vcan0 17C#0000000010000021
(1684363494.154133) vcan0 18E#00006B
(1684363494.154139) vcan0 1CF#80050000003C
(1684363494.154145) vcan0 1DC#02000039
(1684363494.154151) vcan0 320#000030
(1684363494.154157) vcan0 324#7465000000000E38
(1684363494.154163) vcan0 183#0000000A0000102F
(1684363494.154170) vcan0 37C#FD00FD00097F0038
(1684363494.155943) vcan0 143#6B6B00E0
(1684363494.158289) vcan0 095#800007F400000017
(1684363494.158387) vcan0 1A4#0000000800000010
(1684363494.158402) vcan0 1AA#7FFF000000006810
(1684363494.158410) vcan0 244#000000015D
(1684363494.158415) vcan0 1B0#000F0000000157
(1684363494.158427) vcan0 1D0#000000000000000A
(1684363494.160114) vcan0 039#001B
(1684363494.160143) vcan0 166#D0320027
(1684363494.161899) vcan0 158#0000000000000028
(1684363494.161954) vcan0 161#000005500108002B
(1684363494.161962) vcan0 191#010090A1410012
(1684363494.161970) vcan0 164#0000C01AA8000013
(1684363494.161976) vcan0 133#00000000B6
(1684363494.161984) vcan0 136#0002000000000039
(1684363494.161990) vcan0 13A#0000000000000037
(1684363494.163258) vcan0 13F#000000050000003D
(1684363494.163297) vcan0 17C#0000000010000030
(1684363494.163307) vcan0 18E#00007A
(1684363494.163319) vcan0 294#040B0002CF5A000E
(1684363494.163331) vcan0 21E#03E83745220601
(1684363494.164600) vcan0 183#0000000F00001039
(1684363494.166250) vcan0 143#6B6B00FF
(1684363494.166304) vcan0 095#800007F400000026
(1684363494.169863) vcan0 166#D0320036
(1684363494.169866) vcan0 244#00000001BF
(1684363494.171269) vcan0 158#0000000000000037
(1684363494.171291) vcan0 161#000005500108003A
(1684363494.171297) vcan0 164#0000C01AA8000022
(1684363494.171303) vcan0 191#010090A1410021
(1684363494.171310) vcan0 133#0000000089
(1684363494.172761) vcan0 136#000200000000000C
(1684363494.172804) vcan0 13A#000000000000000A
(1684363494.172811) vcan0 13F#0000000500000000
(1684363494.172817) vcan0 17C#0000000010000003
(1684363494.172823) vcan0 18E#00004D
(1684363494.172830) vcan0 1CF#80050000000F
(1684363494.172837) vcan0 1DC#0200000C
(1684363494.174056) vcan0 183#0000000B00001000
(1684363494.175477) vcan0 143#6B6B00C2
(1684363494.177108) vcan0 095#800007F400000035
(1684363494.178360) vcan0 1A4#000000080000002F
(1684363494.178387) vcan0 1AA#7FFF00000000682F
(1684363494.178400) vcan0 1B0#000F0000000166
(1684363494.178410) vcan0 1D0#000000000000000A
(1684363494.180113) vcan0 166#D0320009
(1684363494.180805) vcan0 244#00000001E3
(1684363494.181614) vcan0 158#000000000000000A
(1684363494.181723) vcan0 161#000005500108000D
(1684363494.181856) vcan0 191#010090A1410030
(1684363494.181871) vcan0 164#0000C01AA8000031
(1684363494.181885) vcan0 133#0000000098
(1684363494.181898) vcan0 136#000200000000001B
(1684363494.181913) vcan0 039#002A
(1684363494.184019) vcan0 13A#0000000000000019
(1684363494.184093) vcan0 13F#000000050000001F
(1684363494.184106) vcan0 17C#0000000010000012
(1684363494.184118) vcan0 18E#00005C
(1684363494.184134) vcan0 309#0000000000000084
(1684363494.184149) vcan0 183#0000000800001012
(1684363494.186099) vcan0 143#6B6B00D1
(1684363494.187900) vcan0 095#800007F400000008
(1684363494.189759) vcan0 166#D0320018
(1684363494.191463) vcan0 158#0000000000000019
(1684363494.191519) vcan0 161#000005500108001C
(1684363494.191520) vcan0 244#00000001D3
(1684363494.191562) vcan0 191#010090A1410003
(1684363494.191578) vcan0 164#0000C01AA8000004
(1684363494.191591) vcan0 133#00000000A7
(1684363494.191603) vcan0 136#000200000000002A
(1684363494.193066) vcan0 13A#0000000000000028
(1684363494.193176) vcan0 13F#000000050000002E
(1684363494.193191) vcan0 17C#0000000010000021
(1684363494.193203) vcan0 18E#00006B
(1684363494.193214) vcan0 1CF#80050000001E
(1684363494.193224) vcan0 1DC#0200001B
(1684363494.193235) vcan0 183#0000000600001023
(1684363494.195003) vcan0 143#6B6B00E0
(1684363494.195061) vcan0 039#0039
(1684363494.196404) vcan0 095#800007F400000017
(1684363494.197995) vcan0 1A4#000000080000003E
(1684363494.198021) vcan0 1AA#7FFF00000000673F
(1684363494.198039) vcan0 1B0#000F0000000175
(1684363494.198052) vcan0 1D0#000000000000000A
(1684363494.199785) vcan0 166#D0320027
(1684363494.201595) vcan0 158#0000000000000028
(1684363494.201655) vcan0 161#000005500108002B
(1684363494.201675) vcan0 191#010090A1410012
(1684363494.201689) vcan0 164#0000C01AA8000013
(1684363494.201708) vcan0 133#00000000B6
(1684363494.201724) vcan0 136#0002000000000039
(1684363494.202867) vcan0 13A#0000000000000037
(1684363494.202869) vcan0 244#0000000114
(1684363494.202907) vcan0 13F#000000050000003D
(1684363494.202914) vcan0 17C#0000000010000030
(1684363494.202920) vcan0 18E#00007A
(1684363494.202926) vcan0 294#040B0002CF5A001D
(1684363494.204648) vcan0 21E#03E83745220610
(1684363494.204716) vcan0 183#0000000400001034
(1684363494.204730) vcan0 143#6B6B00FF
(1684363494.207594) vcan0 095#800007F400000026
(1684363494.209373) vcan0 166#D0320036
(1684363494.211865) vcan0 039#000C
(1684363494.212058) vcan0 158#0000000000000037
(1684363494.212075) vcan0 161#000005500108003A
(1684363494.212093) vcan0 164#0000C01AA8000022
(1684363494.212109) vcan0 191#010090A1410021
(1684363494.212123) vcan0 133#0000000089
(1684363494.212137) vcan0 136#000200000000000C
(1684363494.212150) vcan0 13A#000000000000000A
(1684363494.212165) vcan0 13F#0000000500000000
(1684363494.213679) vcan0 244#0000000158
(1684363494.213755) vcan0 17C#0000000010000003
(1684363494.213771) vcan0 18E#00004D
(1684363494.213784) vcan0 1CF#80050000002D
(1684363494.213796) vcan0 1DC#0200002A
(1684363494.213834) vcan0 183#0000000A00001001
(1684363494.215392) vcan0 143#6B6B00C2
(1684363494.216925) vcan0 095#800007F400000035
(1684363494.218648) vcan0 1A4#0000000800000001
(1684363494.218723) vcan0 1AA#7FFF000000006702
(1684363494.218740) vcan0 1B0#000F0000000148
(1684363494.218755) vcan0 1D0#000000000000000A
(1684363494.220383) vcan0 166#D0320009
(1684363494.220468) vcan0 158#000000000000000A
(1684363494.222033) vcan0 161#000005500108000D
(1684363494.222162) vcan0 191#010090A1410030
(1684363494.222177) vcan0 164#0000C01AA8000031
(1684363494.222193) vcan0 133#0000000098
(1684363494.222211) vcan0 136#000200000000001B
(1684363494.222226) vcan0 13A#0000000000000019
(1684363494.222239) vcan0 13F#000000050000001F
(1684363494.223833) vcan0 17C#0000000010000012
(1684363494.223911) vcan0 18E#00005C
(1684363494.223923) vcan0 039#001B
(1684363494.223937) vcan0 183#0000000700001013
(1684363494.224767) vcan0 244#0000000148
(1684363494.225232) vcan0 143#6B6B00D1
(1684363494.226650) vcan0 095#800007F400000008
(1684363494.229732) vcan0 166#D0320018
(1684363494.231410) vcan0 158#0000000000000019
(1684363494.231464) vcan0 161#000005500108001C
(1684363494.231479) vcan0 191#010090A1410003
(1684363494.231495) vcan0 164#0000C01AA8000004
(1684363494.231507) vcan0 133#00000000A7
(1684363494.233016) vcan0 136#000200000000002A
(1684363494.233108) vcan0 13A#0000000000000028
(1684363494.233121) vcan0 13F#000000050000002E
(1684363494.233132) vcan0 17C#0000000010000021
(1684363494.233142) vcan0 18E#00006B
(1684363494.233152) vcan0 1CF#80050000003C
(1684363494.233163) vcan0 1DC#02000039
(1684363494.234350) vcan0 183#0000000500001024
(1684363494.236068) vcan0 143#6B6B00E0
(1684363494.236107) vcan0 244#0000000185
(1684363494.236126) vcan0 333#0000000000000F
(1684363494.237498) vcan0 095#800007F400000017
(1684363494.237525) vcan0 039#002A
(1684363494.237540) vcan0 1A4#0000000800000010
(1684363494.237554) vcan0 305#8017
(1684363494.237568) vcan0 1AA#7FFF000000006810
(1684363494.240104) vcan0 1B0#000F0000000157
(1684363494.240202) vcan0 1D0#000000000000000A
(1684363494.240217) vcan0 166#D0320027
(1684363494.242184) vcan0 158#0000000000000028
(1684363494.242252) vcan0 161#000005500108002B
(1684363494.242265) vcan0 191#010090A1410012
(1684363494.242276) vcan0 18E#00007A
(1684363494.242288) vcan0 133#00000000B6
(1684363494.242300) vcan0 136#0002000000000039
(1684363494.242310) vcan0 13A#0000000000000037
(1684363494.242321) vcan0 13F#000000050000003D
(1684363494.243926) vcan0 164#0000C01AA8000013
(1684363494.244038) vcan0 17C#0000000010000030
(1684363494.244047) vcan0 294#040B0002CF5A002C
(1684363494.244053) vcan0 21E#03E8374522062F
(1684363494.244060) vcan0 183#0000000B0000103D
(1684363494.245812) vcan0 143#6B6B00FF
(1684363494.247495) vcan0 095#800007F400000026
(1684363494.247729) vcan0 244#0000000125
(1684363494.248776) vcan0 039#0039
(1684363494.249906) vcan0 166#D0320036
(1684363494.252388) vcan0 158#0000000000000037
(1684363494.252432) vcan0 161#000005500108003A
(1684363494.252445) vcan0 191#010010A1410029
(1684363494.252456) vcan0 164#0000C01AA8000022
(1684363494.252467) vcan0 133#0000000089
(1684363494.252478) vcan0 136#000200000000000C
(1684363494.252489) vcan0 13A#000000000000000A
(1684363494.252499) vcan0 13F#0000000500000000
(1684363494.252510) vcan0 17C#0000000010000003
(1684363494.252521) vcan0 18E#00004D
(1684363494.254026) vcan0 1CF#80050000000F
(1684363494.254088) vcan0 1DC#0200000C
(1684363494.254103) vcan0 320#000003
(1684363494.254144) vcan0 183#0000000800001003
(1684363494.254154) vcan0 324#7465000000000E0B
(1684363494.254161) vcan0 37C#FD00FD00097F000B
(1684363494.256595) vcan0 143#6B6B00C2
(1684363494.256662) vcan0 095#800007F400000035
(1684363494.257930) vcan0 1A4#000000080000002F
(1684363494.257977) vcan0 1AA#7FFF00000000682F
(1684363494.257993) vcan0 1B0#000F0000000166
(1684363494.258002) vcan0 1D0#000000000000000A
(1684363494.259206) vcan0 244#0000000162
(1684363494.259636) vcan0 166#D0320009
(1684363494.261321) vcan0 158#000000000000000A
(1684363494.261346) vcan0 161#000005500108000D
(1684363494.261353) vcan0 191#010010A1410038
(1684363494.261359) vcan0 18E#00005C
(1684363494.263109) vcan0 133#0000000098
(1684363494.263171) vcan0 136#000200000000001B
(1684363494.263187) vcan0 13A#0000000000000019
(1684363494.263201) vcan0 13F#000000050000001F
(1684363494.263214) vcan0 164#0000C01AA8000031
(1684363494.263225) vcan0 17C#0000000010000012
(1684363494.264712) vcan0 183#0000000600001014
(1684363494.264783) vcan0 039#000C
(1684363494.264797) vcan0 143#6B6B00D1
(1684363494.266390) vcan0 095#800007F400000008
(1684363494.270219) vcan0 166#D0320018
(1684363494.270238) vcan0 244#00000001A3
(1684363494.271455) vcan0 158#0000000000000019
(1684363494.271506) vcan0 161#000005500108001C
(1684363494.271522) vcan0 191#010010A141000B
(1684363494.271537) vcan0 164#0000C01AA8000004
(1684363494.271550) vcan0 133#00000000A7
(1684363494.271561) vcan0 136#000200000000002A
(1684363494.273081) vcan0 13A#0000000000000028
(1684363494.273168) vcan0 13F#000000050000002E
(1684363494.273208) vcan0 17C#0000000010000021
(1684363494.273221) vcan0 18E#00006B
(1684363494.273236) vcan0 1CF#80050000001E
(1684363494.273250) vcan0 1DC#0200001B
(1684363494.273265) vcan0 183#0000000400001025
(1684363494.275660) vcan0 143#6B6B00E0
(1684363494.277443) vcan0 095#800007F400000017
(1684363494.277522) vcan0 1A4#000000080000003E
(1684363494.277538) vcan0 039#001B
(1684363494.279238) vcan0 1AA#7FFF00000000673F
(1684363494.279302) vcan0 1B0#000F0000000175
(1684363494.279320) vcan0 1D0#000000000000000A
(1684363494.279337) vcan0 166#D0320027
(1684363494.280955) vcan0 158#0000000000000028
(1684363494.281011) vcan0 161#000005500108002B
(1684363494.281023) vcan0 191#010010A141001A
(1684363494.281188) vcan0 244#0000000169
(1684363494.282120) vcan0 164#0000C01AA8000013
(1684363494.282145) vcan0 133#00000000B6
(1684363494.282160) vcan0 136#0002000000000039
(1684363494.282173) vcan0 13A#0000000000000037
(1684363494.282185) vcan0 13F#000000050000003D
(1684363494.283634) vcan0 17C#0000000010000030
(1684363494.283935) vcan0 18E#00007A
(1684363494.283998) vcan0 294#040B0002CF5A003B
(1684363494.284010) vcan0 21E#03E8374522063E
(1684363494.284022) vcan0 309#0000000000000093
(1684363494.284038) vcan0 183#0000000300001035
(1684363494.286419) vcan0 143#6B6B00FF
(1684363494.286595) vcan0 095#800007F400000026
(1684363494.290628) vcan0 166#D0320036
(1684363494.290704) vcan0 158#0000000000000037
(1684363494.290723) vcan0 161#000005500108003A
(1684363494.292363) vcan0 039#002A
(1684363494.292434) vcan0 191#010010A1410029
(1684363494.292450) vcan0 164#0000C01AA8000022
(1684363494.292465) vcan0 133#0000000089
(1684363494.292516) vcan0 136#000200000000000C
(1684363494.292532) vcan0 13A#000000000000000A
(1684363494.292546) vcan0 13F#0000000500000000
(1684363494.292561) vcan0 17C#0000000010000003
(1684363494.292621) vcan0 18E#00004D
(1684363494.294053) vcan0 1CF#80050000002D
(1684363494.294116) vcan0 1DC#0200002A
(1684363494.294130) vcan0 183#0000000A00001001
(1684363494.295819) vcan0 143#6B6B00C2
(1684363494.297393) vcan0 095#800007F400000035
(1684363494.297446) vcan0 1A4#0000000800000001
(1684363494.297460) vcan0 1AA#7FFF000000006702
(1684363494.298216) vcan0 244#000000014B
(1684363494.299092) vcan0 1B0#000F0000000148
(1684363494.299148) vcan0 1D0#000000000000000A
(1684363494.300942) vcan0 166#D0320009
(1684363494.301016) vcan0 158#000000000000000A
(1684363494.301025) vcan0 161#000005500108000D
(1684363494.301031) vcan0 191#010010A1410038
(1684363494.303289) vcan0 18E#00005C
(1684363494.303368) vcan0 133#0000000098
(1684363494.303384) vcan0 136#000200000000001B
(1684363494.303399) vcan0 13A#0000000000000019
(1684363494.303410) vcan0 13F#000000050000001F
(1684363494.303421) vcan0 164#0000C01AA8000031
(1684363494.303432) vcan0 17C#0000000010000012
(1684363494.304951) vcan0 183#0000000700001013
(1684363494.304968) vcan0 143#6B6B00D1
(1684363494.308203) vcan0 095#800007F400000008
(1684363494.308277) vcan0 039#0039
(1684363494.309486) vcan0 244#000000010D
(1684363494.309659) vcan0 166#D0320018
(1684363494.311645) vcan0 158#0000000000000019
(1684363494.311677) vcan0 161#000005500108001C
(1684363494.311689) vcan0 191#010010A141000B
(1684363494.311700) vcan0 164#0000C01AA8000004
(1684363494.311712) vcan0 133#00000000A7
(1684363494.311722) vcan0 136#000200000000002A
(1684363494.313472) vcan0 13A#0000000000000028
(1684363494.313529) vcan0 13F#000000050000002E
(1684363494.313545) vcan0 17C#0000000010000021
(1684363494.313569) vcan0 18E#00006B
(1684363494.313589) vcan0 1CF#80050000003C
(1684363494.313602) vcan0 1DC#02000039
(1684363494.313614) vcan0 183#0000000500001024
(1684363494.315196) vcan0 143#6B6B00E0
(1684363494.316982) vcan0 095#800007F400000017
(1684363494.318195) vcan0 1A4#0000000800000010
(1684363494.318251) vcan0 1AA#7FFF000000006810
(1684363494.318258) vcan0 1B0#000F0000000157
(1684363494.318265) vcan0 1D0#000000000000000A
(1684363494.320087) vcan0 166#D0320027
(1684363494.320140) vcan0 039#000C
(1684363494.320930) vcan0 244#00000001A6
(1684363494.321958) vcan0 158#0000000000000028
(1684363494.321981) vcan0 161#000005500108002B
(1684363494.321993) vcan0 191#010010A141001A
(1684363494.322002) vcan0 164#0000C01AA8000013
(1684363494.322012) vcan0 133#00000000B6
(1684363494.322021) vcan0 136#0002000000000039
