(1684363306.503589) vcan0 166#D0320036
(1684363306.505290) vcan0 158#0000000000000037
(1684363306.505353) vcan0 161#000005500108003A
(1684363306.505367) vcan0 191#010010A1410029
(1684363306.505381) vcan0 164#0000C01AA8000022
(1684363306.505393) vcan0 133#0000000089
(1684363306.506964) vcan0 136#000200000000000C
(1684363306.507026) vcan0 13A#000000000000000A
(1684363306.507040) vcan0 039#000C
(1684363306.507053) vcan0 13F#0000000500000000
(1684363306.507064) vcan0 17C#0000000010000003
(1684363306.507078) vcan0 18E#00004D
(1684363306.507088) vcan0 1CF#80050000000F
(1684363306.507099) vcan0 1DC#0200000C
(1684363306.507548) vcan0 244#00000001FB
(1684363306.508551) vcan0 183#0000000E0000100D
(1684363306.508596) vcan0 143#6B6B00C2
(1684363306.511152) vcan0 095#800007F400000035
(1684363306.511238) vcan0 1A4#000000080000002F
(1684363306.512585) vcan0 1AA#7FFF000000006720
(1684363306.512661) vcan0 1B0#000F0000000166
(1684363306.512676) vcan0 1D0#000000000000000A
(1684363306.513937) vcan0 166#D0320009
(1684363306.515521) vcan0 158#000000000000000A
(1684363306.515636) vcan0 161#000005500108000D
(1684363306.515649) vcan0 191#010010A1410038
(1684363306.515661) vcan0 133#0000000098
(1684363306.515671) vcan0 136#000200000000001B
(1684363306.515730) vcan0 13A#0000000000000019
(1684363306.517006) vcan0 13F#000000050000001F
(1684363306.517073) vcan0 164#0000C01AA8000031
(1684363306.517088) vcan0 17C#0000000010000012
(1684363306.517104) vcan0 18E#00005C
(1684363306.518428) vcan0 183#0000000A00001010
(1684363306.518476) vcan0 244#000000018D
(1684363306.520103) vcan0 143#6B6B00D1
(1684363306.520188) vcan0 039#001B
(1684363306.521652) vcan0 095#800007F400000008
(1684363306.524506) vcan0 166#D0320018
(1684363306.524571) vcan0 158#0000000000000019
(1684363306.526068) vcan0 161#000005500108001C
(1684363306.526148) vcan0 191#010010A141000B
(1684363306.526163) vcan0 164#0000C01AA8000004
(1684363306.526176) vcan0 133#00000000A7
(1684363306.526189) vcan0 136#000200000000002A
(1684363306.526201) vcan0 13A#0000000000000028
(1684363306.526213) vcan0 13F#000000050000002E
(1684363306.527999) vcan0 17C#0000000010000021
(1684363306.528058) vcan0 18E#00006B
(1684363306.528072) vcan0 1CF#80050000001E
(1684363306.528087) vcan0 1DC#0200001B
(1684363306.528101) vcan0 183#0000000700001022
(1684363306.529715) vcan0 143#6B6B00E0
(1684363306.529748) vcan0 244#0000000140
(1684363306.529781) vcan0 333#0000000000002D
(1684363306.531526) vcan0 095#800007F400000017
(1684363306.531585) vcan0 1A4#000000080000003E
(1684363306.531602) vcan0 1AA#7FFF00000000673F
(1684363306.532947) vcan0 1B0#000F0000000175
(1684363306.532984) vcan0 1D0#000000000000000A
(1684363306.532991) vcan0 039#002A
(1684363306.534365) vcan0 166#D0320027
(1684363306.534426) vcan0 158#0000000000000028
(1684363306.536174) vcan0 161#000005500108002B
(1684363306.536212) vcan0 191#010010A141001A
(1684363306.536220) vcan0 133#00000000B6
(1684363306.536225) vcan0 136#0002000000000039
(1684363306.536231) vcan0 13A#0000000000000037
(1684363306.536237) vcan0 13F#000000050000003D
(1684363306.536253) vcan0 164#0000C01AA8000013
(1684363306.537970) vcan0 17C#0000000010000030
(1684363306.538069) vcan0 18E#00007A
(1684363306.538083) vcan0 294#040B0002CF5A001D
(1684363306.538100) vcan0 21E#03E83745220610
(1684363306.538113) vcan0 183#0000000500001033
(1684363306.539685) vcan0 143#6B6B00FF
(1684363306.541317) vcan0 095#800007F400000026
(1684363306.541388) vcan0 244#0000000115
(1684363306.544877) vcan0 166#D0320036
(1684363306.544939) vcan0 158#0000000000000037
(1684363306.544946) vcan0 161#000005500108003A
(1684363306.544952) vcan0 191#010010A1410029
(1684363306.546223) vcan0 164#0000C01AA8000022
(1684363306.546279) vcan0 133#0000000089
(1684363306.546309) vcan0 136#000200000000000C
(1684363306.546316) vcan0 13A#000000000000000A
(1684363306.546322) vcan0 13F#0000000500000000
(1684363306.546328) vcan0 17C#0000000010000003
(1684363306.547975) vcan0 18E#00004D
(1684363306.548023) vcan0 1CF#80050000002D
(1684363306.548045) vcan0 1DC#0200002A
(1684363306.548058) vcan0 320#000021
(1684363306.548070) vcan0 324#7465000000000E29
(1684363306.548081) vcan0 37C#FD00FD00097F0029
(1684363306.548093) vcan0 183#0000000300001008
(1684363306.549440) vcan0 143#6B6B00C2
(1684363306.551233) vcan0 095#800007F400000035
(1684363306.551279) vcan0 1A4#0000000800000001
(1684363306.552532) vcan0 1AA#7FFF000000006801
(1684363306.552585) vcan0 1B0#000F0000000148
(1684363306.552634) vcan0 1D0#000000000000000A
(1684363306.552646) vcan0 039#0039
(1684363306.554288) vcan0 166#D0320009
(1684363306.555923) vcan0 158#000000000000000A
(1684363306.556049) vcan0 161#000005500108000D
(1684363306.556062) vcan0 191#010010A1410038
(1684363306.556072) vcan0 133#0000000098
(1684363306.556084) vcan0 136#000200000000001B
(1684363306.556094) vcan0 13A#0000000000000019
(1684363306.556105) vcan0 13F#000000050000001F
(1684363306.556116) vcan0 164#0000C01AA8000031
(1684363306.557631) vcan0 17C#0000000010000012
(1684363306.557687) vcan0 244#0000000170
(1684363306.557732) vcan0 18E#00005C
(1684363306.559039) vcan0 183#0000000A00001010
(1684363306.559132) vcan0 143#6B6B00D1
(1684363306.560937) vcan0 095#800007F400000008
(1684363306.564490) vcan0 166#D0320018
(1684363306.564536) vcan0 039#000C
(1684363306.564585) vcan0 158#0000000000000019
(1684363306.565738) vcan0 161#000005500108001C
(1684363306.565820) vcan0 191#010010A141000B
(1684363306.565843) vcan0 164#0000C01AA8000004
(1684363306.565857) vcan0 133#00000000A7
(1684363306.565869) vcan0 136#000200000000002A
(1684363306.565881) vcan0 13A#0000000000000028
(1684363306.567591) vcan0 13F#000000050000002E
(1684363306.567634) vcan0 17C#0000000010000021
(1684363306.567655) vcan0 18E#00006B
(1684363306.567668) vcan0 1CF#80050000003C
(1684363306.567710) vcan0 1DC#02000039
(1684363306.567722) vcan0 183#0000000700001022
(1684363306.568751) vcan0 244#0000000106
(1684363306.569134) vcan0 143#6B6B00E0
(1684363306.570540) vcan0 095#800007F400000017
(1684363306.572386) vcan0 1A4#0000000800000010
(1684363306.572455) vcan0 1AA#7FFF000000006810
(1684363306.572473) vcan0 1B0#000F0000000157
(1684363306.572486) vcan0 1D0#000000000000000A
(1684363306.573861) vcan0 166#D0320027
(1684363306.575622) vcan0 158#0000000000000028
(1684363306.575681) vcan0 161#000005500108002B
(1684363306.575696) vcan0 191#010010A141001A
(1684363306.575712) vcan0 133#00000000B6
(1684363306.575725) vcan0 136#0002000000000039
(1684363306.575737) vcan0 13A#0000000000000037
(1684363306.577515) vcan0 13F#000000050000003D
(1684363306.577573) vcan0 164#0000C01AA8000013
(1684363306.577588) vcan0 17C#0000000010000030
(1684363306.577600) vcan0 18E#00007A
(1684363306.577613) vcan0 294#040B0002CF5A002C
(1684363306.577625) vcan0 21E#03E8374522062F
(1684363306.577637) vcan0 309#00000000000000B1
(1684363306.579308) vcan0 039#001B
(1684363306.579368) vcan0 183#0000000500001033
(1684363306.579382) vcan0 143#6B6B00FF
(1684363306.579963) vcan0 244#000000015A
(1684363306.580965) vcan0 095#800007F400000026
(1684363306.584022) vcan0 166#D0320036
(1684363306.585709) vcan0 158#0000000000000037
(1684363306.585775) vcan0 161#000005500108003A
(1684363306.585789) vcan0 191#010010A1410029
(1684363306.585801) vcan0 164#0000C01AA9000021
(1684363306.585811) vcan0 133#0000000089
(1684363306.585822) vcan0 136#000200000000000C
(1684363306.587437) vcan0 13A#000000000000000A
(1684363306.587475) vcan0 13F#0000000500000000
(1684363306.587489) vcan0 17C#0000000010000003
(1684363306.587510) vcan0 18E#00004D
(1684363306.587520) vcan0 1CF#80050000000F
(1684363306.587532) vcan0 1DC#0200000C
(1684363306.587543) vcan0 183#0000000B00001000
(1684363306.589108) vcan0 143#6B6B00C2
(1684363306.590776) vcan0 095#800007F400000035
(1684363306.590871) vcan0 305#8035
(1684363306.591008) vcan0 244#0000000157
(1684363306.592495) vcan0 1A4#000000080000002F
(1684363306.592529) vcan0 1AA#7FFF000000006720
(1684363306.592541) vcan0 1B0#000F0000000166
(1684363306.592554) vcan0 1D0#000000000000000A
(1684363306.594056) vcan0 166#D0320009
(1684363306.595890) vcan0 158#000000000000000A
(1684363306.595953) vcan0 161#000005500108000D
(1684363306.595968) vcan0 191#010010A1410038
(1684363306.595988) vcan0 133#0000000098
(1684363306.596003) vcan0 136#000200000000001B
(1684363306.596018) vcan0 13A#0000000000000019
(1684363306.596032) vcan0 13F#000000050000001F
(1684363306.597680) vcan0 164#0000C01AA8000031
(1684363306.597788) vcan0 17C#0000000010000012
(1684363306.597797) vcan0 18E#00005C
(1684363306.597804) vcan0 039#002A
(1684363306.599374) vcan0 183#0000000800001012
(1684363306.599446) vcan0 143#6B6B00D1
(1684363306.601036) vcan0 095#800007F400000008
(1684363306.604380) vcan0 166#D0320018
(1684363306.604471) vcan0 158#0000000000000019
(1684363306.605670) vcan0 161#000005500108001C
(1684363306.605788) vcan0 191#010010A141000B
(1684363306.605818) vcan0 164#0000C01AA8000004
(1684363306.605830) vcan0 133#00000000A7
(1684363306.605895) vcan0 136#000200000000002A
(1684363306.605913) vcan0 13A#0000000000000028
(1684363306.607050) vcan0 244#00000001F4
(1684363306.607660) vcan0 13F#000000050000002E
(1684363306.607682) vcan0 17C#0000000010000021
(1684363306.607694) vcan0 18E#00006B
(1684363306.607706) vcan0 1CF#80050000001E
(1684363306.607717) vcan0 1DC#0200001B
(1684363306.607729) vcan0 183#0000000600001023
(1684363306.608992) vcan0 143#6B6B00E0
(1684363306.611647) vcan0 095#800007F400000017
(1684363306.611697) vcan0 1A4#000000080000003E
(1684363306.611714) vcan0 1AA#7FFF00000000673F
(1684363306.611728) vcan0 1B0#000F0000000175
(1684363306.613429) vcan0 1D0#000000000000000A
(1684363306.613483) vcan0 039#0039
(1684363306.613497) vcan0 166#D0320027
(1684363306.614814) vcan0 158#0000000000000028
(1684363306.614868) vcan0 161#000005500108002B
(1684363306.614885) vcan0 191#010010A141001A
(1684363306.616623) vcan0 133#00000000B6
(1684363306.616680) vcan0 136#0002000000000039
(1684363306.616693) vcan0 13A#0000000000000037
(1684363306.616706) vcan0 13F#000000050000003D
(1684363306.616719) vcan0 164#0000C01AA8000013
(1684363306.616730) vcan0 17C#0000000010000030
(1684363306.616742) vcan0 18E#00007A
(1684363306.616752) vcan0 294#040B0002CF5A003B
(1684363306.617948) vcan0 21E#03E8374522063E
(1684363306.618503) vcan0 244#000000014B
(1684363306.619143) vcan0 183#0000000C0000103C
(1684363306.619192) vcan0 143#6B6B00FF
(1684363306.620808) vcan0 095#800007F800000022
(1684363306.623701) vcan0 166#D0320036
(1684363306.625521) vcan0 158#0000000000000037
(1684363306.625713) vcan0 161#000005500108003A
(1684363306.625729) vcan0 191#010010A1410029
(1684363306.625763) vcan0 164#0000C01AA8000022
(1684363306.625779) vcan0 133#0000000089
(1684363306.625793) vcan0 039#000C
(1684363306.625806) vcan0 136#000200000000000C
(1684363306.627585) vcan0 13A#000000000000000A
(1684363306.627649) vcan0 13F#0000000500000000
(1684363306.627663) vcan0 17C#0000000010000003
(1684363306.627677) vcan0 18E#00004D
(1684363306.627691) vcan0 1CF#80050000002D
(1684363306.627703) vcan0 1DC#0200002A
(1684363306.627715) vcan0 183#0000000900001002
(1684363306.629758) vcan0 143#6B6B00C2
(1684363306.629802) vcan0 244#0000000177
(1684363306.629840) vcan0 333#0000000000003C
(1684363306.631580) vcan0 095#800007F800000031
(1684363306.631634) vcan0 1A4#0000000800000001
(1684363306.631648) vcan0 1AA#7FFF000000006801
(1684363306.631660) vcan0 1B0#000F0000000148
(1684363306.633156) vcan0 1D0#000000000000000A
(1684363306.633216) vcan0 166#D0320009
(1684363306.634520) vcan0 158#000000000000000A
(1684363306.635819) vcan0 161#000005500108000D
(1684363306.635874) vcan0 191#010010A1410038
(1684363306.635891) vcan0 133#0000000098
(1684363306.635905) vcan0 136#000200000000001B
(1684363306.635949) vcan0 13A#0000000000000019
(1684363306.635962) vcan0 13F#000000050000001F
(1684363306.637558) vcan0 164#0000C01AA8000031
(1684363306.637623) vcan0 17C#0000000010000012
(1684363306.637636) vcan0 18E#00005C
(1684363306.639194) vcan0 183#0000000E0000101C
(1684363306.639298) vcan0 143#6B6B00D1
(1684363306.639311) vcan0 039#001B
(1684363306.640614) vcan0 244#0000000181
(1684363306.640669) vcan0 095#800007F800000004
(1684363306.643263) vcan0 166#D0320018
(1684363306.644703) vcan0 158#0000000000000019
(1684363306.644775) vcan0 161#000005500108001C
(1684363306.645998) vcan0 191#010090A1410003
(1684363306.646020) vcan0 133#00000000A7
(1684363306.646033) vcan0 136#000200000000002A
(1684363306.646047) vcan0 13A#0000000000000028
(1684363306.646062) vcan0 13F#000000050000002E
(1684363306.647239) vcan0 164#0000C01AA8000004
(1684363306.647272) vcan0 17C#0000000010000021
(1684363306.647279) vcan0 18E#00006B
(1684363306.647285) vcan0 1CF#80050000003C
(1684363306.647291) vcan0 1DC#02000039
(1684363306.647297) vcan0 320#000030
(1684363306.647303) vcan0 324#7465000000000E38
(1684363306.648921) vcan0 37C#FD00FD00097F0038
(1684363306.648997) vcan0 183#0000000A0000102F
(1684363306.649011) vcan0 143#6B6B00E0
(1684363306.650703) vcan0 095#800007F800000013
(1684363306.651362) vcan0 244#0000000184
(1684363306.652121) vcan0 1A4#0000000800000010
(1684363306.652141) vcan0 1AA#7FFF000000006810
(1684363306.652156) vcan0 1B0#000F0000000157
(1684363306.652169) vcan0 1D0#000000000000000A
(1684363306.653481) vcan0 039#002A
(1684363306.653541) vcan0 166#D0320027
(1684363306.655199) vcan0 158#0000000000000028
(1684363306.655251) vcan0 161#000005500108002B
(1684363306.655264) vcan0 191#010090A1410012
(1684363306.655276) vcan0 133#00000000B6
(1684363306.657425) vcan0 136#0002000000000039
(1684363306.657491) vcan0 13A#0000000000000037
(1684363306.657510) vcan0 13F#000000050000003D
(1684363306.657526) vcan0 164#0000C01AA9000012
(1684363306.657543) vcan0 17C#0000000010000030
(1684363306.657556) vcan0 18E#00007A
(1684363306.657568) vcan0 294#040B0002CF5A000E
(1684363306.657581) vcan0 21E#03E83745220601
(1684363306.659228) vcan0 183#0000000F00001039
(1684363306.659296) vcan0 143#6B6B00FF
(1684363306.661096) vcan0 095#800007F800000022
(1684363306.662826) vcan0 244#00000001D4
(1684363306.664085) vcan0 166#D0320036
(1684363306.665608) vcan0 158#0000000000000037
(1684363306.665688) vcan0 161#000005500108003A
(1684363306.665703) vcan0 191#010090A1410021
(1684363306.665716) vcan0 164#0000C01AA8000022
(1684363306.665727) vcan0 133#0000000089
(1684363306.665740) vcan0 136#000200000000000C
(1684363306.667315) vcan0 13A#000000000000000A
(1684363306.667357) vcan0 13F#0000000500000000
(1684363306.667371) vcan0 17C#0000000010000003
(1684363306.667383) vcan0 18E#00004D
(1684363306.667395) vcan0 1CF#80050000000F
(1684363306.667406) vcan0 1DC#0200000C
(1684363306.669056) vcan0 183#0000001300001007
(1684363306.669090) vcan0 039#0039
(1684363306.669097) vcan0 143#6B6B00C2
(1684363306.671486) vcan0 095#800007F400000035
(1684363306.671539) vcan0 1A4#000000080000002F
(1684363306.671556) vcan0 1AA#7FFF000000006720
(1684363306.673460) vcan0 1B0#000F0000000166
(1684363306.673565) vcan0 1D0#000000000000000A
(1684363306.673581) vcan0 166#D0320009
(1684363306.673758) vcan0 244#00000001C2
(1684363306.674781) vcan0 158#000000000000000A
(1684363306.675361) vcan0 161#000005500108000D
(1684363306.675381) vcan0 191#010090A1410030
(1684363306.675399) vcan0 133#0000000098
(1684363306.675410) vcan0 136#000200000000001B
(1684363306.677232) vcan0 13A#0000000000000019
(1684363306.677305) vcan0 13F#000000050000001F
(1684363306.677321) vcan0 164#0000C01AA8000031
(1684363306.677335) vcan0 17C#0000000010000012
(1684363306.677347) vcan0 18E#00005C
(1684363306.677361) vcan0 309#0000000000000084
(1684363306.679090) vcan0 183#0000000E0000101C
(1684363306.679163) vcan0 143#6B6B00D1
(1684363306.680857) vcan0 095#800007F400000008
(1684363306.682171) vcan0 039#000C
(1684363306.683784) vcan0 166#D0320018
(1684363306.684506) vcan0 244#0000000190
(1684363306.685286) vcan0 158#0000000000000019
(1684363306.685306) vcan0 161#000005500108001C
(1684363306.685318) vcan0 191#010090A1410003
(1684363306.685327) vcan0 164#0000C01AA8000004
(1684363306.685336) vcan0 133#00000000A7
(1684363306.686827) vcan0 136#000200000000002A
(1684363306.686912) vcan0 13A#0000000000000028
(1684363306.686925) vcan0 13F#000000050000002E
(1684363306.686935) vcan0 17C#0000000010000021
(1684363306.686946) vcan0 18E#00006B
(1684363306.686957) vcan0 1CF#80050000001E
(1684363306.686967) vcan0 1DC#0200001B
(1684363306.688280) vcan0 183#0000000A0000102F
(1684363306.689817) vcan0 143#6B6B00E0
(1684363306.691463) vcan0 095#800007F400000017
(1684363306.691532) vcan0 1A4#000000080000003E
(1684363306.691547) vcan0 1AA#7FFF00000000673F
(1684363306.693070) vcan0 1B0#000F0000000175
(1684363306.693142) vcan0 1D0#000000000000000A
(1684363306.693157) vcan0 166#D0320027
(1684363306.694554) vcan0 158#0000000000000028
(1684363306.696315) vcan0 161#000005500108002B
(1684363306.696372) vcan0 191#010090A1410012
(1684363306.696386) vcan0 133#00000000B6
(1684363306.696401) vcan0 136#0002000000000039
(1684363306.696415) vcan0 039#001B
(1684363306.696427) vcan0 13A#0000000000000037
(1684363306.696438) vcan0 13F#000000050000003D
(1684363306.696448) vcan0 164#0000C01AA8000013
(1684363306.696491) vcan0 17C#0000000010000030
(1684363306.698005) vcan0 18E#00007A
(1684363306.698096) vcan0 294#040B0002CF5A001D
(1684363306.698111) vcan0 305#8008
(1684363306.698125) vcan0 21E#03E83745220610
(1684363306.698167) vcan0 183#0000000700001031
(1684363306.699941) vcan0 143#6B6B00FF
(1684363306.700606) vcan0 244#00000001BB
(1684363306.701901) vcan0 095#800007F400000026
(1684363306.701956) vcan0 5A1#960000000000622F
(1684363306.703331) vcan0 166#D0320036
(1684363306.704576) vcan0 158#0000000000000037
(1684363306.704626) vcan0 161#000005500108003A
(1684363306.706009) vcan0 191#010090A1410021
(1684363306.706071) vcan0 133#0000000089
(1684363306.706121) vcan0 136#000200000000000C
(1684363306.706137) vcan0 13A#000000000000000A
(1684363306.706150) vcan0 13F#0000000500000000
(1684363306.706162) vcan0 164#0000C01AA8000022
(1684363306.708059) vcan0 17C#0000000010000003
(1684363306.708117) vcan0 18E#00004D
(1684363306.708124) vcan0 1CF#80050000002D
(1684363306.708130) vcan0 1DC#0200002A
(1684363306.708136) vcan0 183#0000000500001006
(1684363306.709591) vcan0 143#6B6B00C2
(1684363306.709622) vcan0 039#002A
(1684363306.710875) vcan0 095#800007F400000035
(1684363306.711602) vcan0 244#0000000165
(1684363306.712357) vcan0 1A4#0000000800000001
(1684363306.712407) vcan0 1AA#7FFF000000006801
(1684363306.712419) vcan0 1B0#000F0000000148
(1684363306.712428) vcan0 1D0#000000000000000A
(1684363306.713653) vcan0 166#D0320009
(1684363306.715393) vcan0 158#000000000000000A
(1684363306.715420) vcan0 161#000005500108000D
(1684363306.715433) vcan0 191#010090A1410030
(1684363306.715444) vcan0 133#0000000098
(1684363306.715454) vcan0 136#000200000000001B
(1684363306.716633) vcan0 13A#0000000000000019
(1684363306.716690) vcan0 13F#000000050000001F
(1684363306.716705) vcan0 164#0000C01AA8000031
(1684363306.716718) vcan0 17C#0000000010000012
(1684363306.716733) vcan0 18E#00005C
(1684363306.718173) vcan0 183#0000000B0000101F
(1684363306.720007) vcan0 143#6B6B00D1
(1684363306.721263) vcan0 095#800007F400000008
(1684363306.722398) vcan0 244#00000001B4
(1684363306.723059) vcan0 039#0039
(1684363306.723166) vcan0 166#D0320018
(1684363306.725332) vcan0 158#0000000000000019
(1684363306.725389) vcan0 161#000005500108001C
(1684363306.725403) vcan0 191#010090A1410003
(1684363306.725420) vcan0 133#00000000A7
(1684363306.725433) vcan0 136#000200000000002A
(1684363306.726886) vcan0 13A#0000000000000028
(1684363306.726962) vcan0 13F#000000050000002E
(1684363306.726977) vcan0 164#0000C01AA8000004
(1684363306.726990) vcan0 17C#0000000010000021
(1684363306.727003) vcan0 18E#00006B
(1684363306.727014) vcan0 1CF#80050000003C
(1684363306.727026) vcan0 1DC#02000039
(1684363306.728616) vcan0 183#0000000800001021
(1684363306.728674) vcan0 143#6B6B00E0
(1684363306.729854) vcan0 333#0000000000000F
(1684363306.731627) vcan0 095#800007F400000017
(1684363306.731697) vcan0 1A4#0000000800000010
(1684363306.731713) vcan0 1AA#7FFF000000006810
(1684363306.731726) vcan0 1B0#000F0000000157
(1684363306.733285) vcan0 1D0#000000000000000A
(1684363306.733384) vcan0 166#D0320027
(1684363306.733521) vcan0 244#0000000172
(1684363306.734920) vcan0 158#0000000000000028
(1684363306.735070) vcan0 161#000005500108002B
(1684363306.735087) vcan0 191#010090A1410012
(1684363306.735099) vcan0 133#00000000B6
(1684363306.736411) vcan0 136#0002000000000039
(1684363306.736478) vcan0 13A#0000000000000037
(1684363306.736493) vcan0 13F#000000050000003D
(1684363306.736509) vcan0 164#0000C01AA8000013
(1684363306.736522) vcan0 17C#0000000010000030
(1684363306.736536) vcan0 18E#00007A
(1684363306.738166) vcan0 294#040B0002CF5A002C
(1684363306.738324) vcan0 21E#03E8374522062F
(1684363306.738368) vcan0 183#0000000D0000103B
(1684363306.739871) vcan0 143#6B6B00FF
(1684363306.741308) vcan0 095#800007F400000026
(1684363306.742889) vcan0 039#000C
(1684363306.744373) vcan0 166#D0320036
(1684363306.744399) vcan0 244#0000000127
(1684363306.744547) vcan0 158#0000000000000037
(1684363306.746095) vcan0 161#000005500108003A
(1684363306.746153) vcan0 191#010090A1410021
(1684363306.746167) vcan0 133#0000000089
(1684363306.746178) vcan0 136#000200000000000C
(1684363306.746189) vcan0 13A#000000000000000A
(1684363306.746200) vcan0 13F#0000000500000000
(1684363306.746211) vcan0 164#0000C01AA8000022
(1684363306.748015) vcan0 17C#0000000010000003
(1684363306.748091) vcan0 18E#00004D
(1684363306.748106) vcan0 1CF#80050000000F
(1684363306.748119) vcan0 1DC#0200000C
(1684363306.748130) vcan0 320#000003
(1684363306.748141) vcan0 324#7465000000000E0B
(1684363306.748151) vcan0 37C#FD00FD00097F000B
(1684363306.748162) vcan0 183#0000000900001002
(1684363306.748173) vcan0 40C#033133383439000D
(1684363306.748183) vcan0 454#23EF09
(1684363306.749484) vcan0 143#6B6B00C2
(1684363306.751195) vcan0 095#800007F400000035
(1684363306.751272) vcan0 1A4#000000080000002F
(1684363306.752994) vcan0 1AA#7FFF000000006720
(1684363306.753072) vcan0 1B0#000F0000000166
(1684363306.753085) vcan0 1D0#000000000000000A
(1684363306.754570) vcan0 166#D0320009
(1684363306.754645) vcan0 158#000000000000000A
(1684363306.754659) vcan0 161#000005500108000D
(1684363306.756263) vcan0 191#010090A1410030
(1684363306.756354) vcan0 18E#00005C
(1684363306.756370) vcan0 133#0000000098
(1684363306.756384) vcan0 136#000200000000001B
(1684363306.756398) vcan0 13A#0000000000000019
(1684363306.756412) vcan0 039#001B
(1684363306.756427) vcan0 13F#000000050000001F
(1684363306.756441) vcan0 164#0000C01AA8000031
(1684363306.757814) vcan0 17C#0000000010000012
(1684363306.759633) vcan0 183#0000000600001014
(1684363306.759684) vcan0 143#6B6B00D1
(1684363306.760300) vcan0 244#00000001DD
(1684363306.760969) vcan0 095#800007F400000008
(1684363306.764188) vcan0 166#D0320018
(1684363306.765595) vcan0 158#0000000000000019
(1684363306.765674) vcan0 161#000005500108001C
(1684363306.765691) vcan0 191#010090A1410003
(1684363306.765707) vcan0 164#0000C01AA8000004
(1684363306.765721) vcan0 133#00000000A7
(1684363306.765734) vcan0 136#000200000000002A
(1684363306.767356) vcan0 13A#0000000000000028
(1684363306.767438) vcan0 13F#000000050000002E
(1684363306.767453) vcan0 17C#0000000010000021
(1684363306.767465) vcan0 18E#00006B
(1684363306.767476) vcan0 1CF#80050000001E
(1684363306.767490) vcan0 1DC#0200001B
(1684363306.769134) vcan0 183#0000000C0000102D
(1684363306.769196) vcan0 143#6B6B00E0
(1684363306.770519) vcan0 095#800007F400000017
(1684363306.771142) vcan0 244#0000000107
(1684363306.772516) vcan0 039#002A
(1684363306.772591) vcan0 1A4#000000080000003E
(1684363306.772611) vcan0 1AA#7FFF00000000673F
(1684363306.772628) vcan0 1B0#000F0000000175
(1684363306.772644) vcan0 1D0#000000000000000A
(1684363306.773850) vcan0 166#D0320027
(1684363306.775635) vcan0 158#0000000000000028
(1684363306.775705) vcan0 161#000005500108002B
(1684363306.775720) vcan0 191#010090A1410012
(1684363306.775735) vcan0 133#00000000B6
(1684363306.775748) vcan0 136#0002000000000039
(1684363306.775759) vcan0 13A#0000000000000037
(1684363306.777407) vcan0 13F#000000050000003D
(1684363306.777466) vcan0 164#0000C01AA8000013
(1684363306.777481) vcan0 17C#0000000010000030
(1684363306.777495) vcan0 18E#00007A
(1684363306.777509) vcan0 294#040B0002CF5A003B
(1684363306.777521) vcan0 21E#03E8374522063E
(1684363306.777533) vcan0 309#0000000000000093
(1684363306.778804) vcan0 428#01040000521C10
(1684363306.778856) vcan0 405#000004000000001A
(1684363306.778873) vcan0 183#000000090000103F
(1684363306.778887) vcan0 143#6B6B00FF
(1684363306.780438) vcan0 095#800007F400000026
(1684363306.782529) vcan0 244#0000000108
(1684363306.783727) vcan0 166#D0320036
(1684363306.785792) vcan0 158#0000000000000037
(1684363306.785877) vcan0 161#000005500108003A
(1684363306.785894) vcan0 191#010090A1410021
(1684363306.785906) vcan0 039#0039
(1684363306.785919) vcan0 133#0000000089
(1684363306.785931) vcan0 136#000200000000000C
(1684363306.785942) vcan0 13A#000000000000000A
(1684363306.785952) vcan0 13F#0000000500000000
(1684363306.787505) vcan0 164#0000C01AA8000022
(1684363306.787584) vcan0 17C#0000000010000003
(1684363306.787598) vcan0 18E#00004D
(1684363306.787610) vcan0 1CF#80050000002D
(1684363306.787621) vcan0 1DC#0200002A
(1684363306.787632) vcan0 183#0000000E0000100D
(1684363306.789251) vcan0 143#6B6B00C2
(1684363306.790489) vcan0 095#800007F400000035
(1684363306.792131) vcan0 1A4#0000000800000001
(1684363306.792168) vcan0 1AA#7FFF000000006801
(1684363306.792175) vcan0 1B0#000F0000000148
(1684363306.792181) vcan0 1D0#000000000000000A
(1684363306.793956) vcan0 166#D0320009
(1684363306.795780) vcan0 158#000000000000000A
(1684363306.795854) vcan0 161#000005500108000D
(1684363306.795869) vcan0 191#010090A1410030
(1684363306.795881) vcan0 133#0000000098
(1684363306.795892) vcan0 136#000200000000001B
(1684363306.795903) vcan0 13A#0000000000000019
(1684363306.795913) vcan0 13F#000000050000001F
(1684363306.797761) vcan0 164#0000C01AA8000031
(1684363306.797815) vcan0 17C#0000000010000012
(1684363306.797862) vcan0 18E#00005C
(1684363306.798947) vcan0 244#00000001F1
(1684363306.799579) vcan0 183#0000000A00001010
(1684363306.799601) vcan0 039#000C
(1684363306.799618) vcan0 143#6B6B00D1
(1684363306.799626) vcan0 305#8017
(1684363306.801040) vcan0 095#800007F400000008
(1684363306.804436) vcan0 166#D0320018
(1684363306.804479) vcan0 158#0000000000000019
(1684363306.806049) vcan0 161#000005500108001C
(1684363306.806079) vcan0 191#010090A1410003
(1684363306.806091) vcan0 133#00000000A7
(1684363306.806101) vcan0 136#000200000000002A
(1684363306.806113) vcan0 13A#0000000000000028
(1684363306.806126) vcan0 13F#000000050000002E
(1684363306.806137) vcan0 164#0000C01AA8000004
(1684363306.807709) vcan0 17C#0000000010000021
(1684363306.807767) vcan0 18E#00006B
(1684363306.807775) vcan0 1CF#80050000003C
(1684363306.807781) vcan0 1DC#02000039
(1684363306.807787) vcan0 183#0000000700001022
(1684363306.809596) vcan0 143#6B6B00E0
(1684363306.809843) vcan0 244#0000000194
(1684363306.810958) vcan0 095#800007F400000017
(1684363306.812345) vcan0 1A4#0000000800000010
(1684363306.812404) vcan0 1AA#7FFF000000006810
(1684363306.812412) vcan0 1B0#000F0000000157
(1684363306.812418) vcan0 1D0#000000000000000A
(1684363306.814215) vcan0 166#D0320027
(1684363306.815500) vcan0 158#0000000000000028
(1684363306.815583) vcan0 161#000005500108002B
(1684363306.815597) vcan0 191#010090A1410012
(1684363306.815611) vcan0 133#00000000B6
(1684363306.815623) vcan0 136#0002000000000039
(1684363306.815636) vcan0 039#001B
(1684363306.817200) vcan0 13A#0000000000000037
(1684363306.817267) vcan0 13F#000000050000003D
(1684363306.817282) vcan0 164#0000C01AA8000013
(1684363306.817299) vcan0 17C#0000000010000030
(1684363306.817313) vcan0 18E#00007A
(1684363306.817325) vcan0 294#040B0002CF5A000E
(1684363306.817337) vcan0 21E#03E83745220601
(1684363306.818664) vcan0 183#0000000D0000103B
(1684363306.818750) vcan0 143#6B6B00FF
(1684363306.821069) vcan0 244#00000001F8
(1684363306.822434) vcan0 095#800007F400000026
(1684363306.824531) vcan0 166#D0320036
(1684363306.824562) vcan0 158#0000000000000037
(1684363306.826285) vcan0 161#000005500108003A
(1684363306.826339) vcan0 191#010090A1410021
(1684363306.826346) vcan0 164#0000C01AA8000022
(1684363306.826353) vcan0 133#0000000089
(1684363306.826359) vcan0 136#000200000000000C
(1684363306.826366) vcan0 13A#000000000000000A
(1684363306.826371) vcan0 13F#0000000500000000
(1684363306.826380) vcan0 17C#0000000010000003
(1684363306.828060) vcan0 18E#00004D
(1684363306.828097) vcan0 1CF#80050000000F
(1684363306.828104) vcan0 1DC#0200000C
(1684363306.828111) vcan0 183#0000000900001002
(1684363306.828117) vcan0 039#002A
(1684363306.829906) vcan0 143#6B6B00C2
(1684363306.829964) vcan0 333#0000000000001E
(1684363306.831315) vcan0 095#800007F400000035
(1684363306.831367) vcan0 1A4#000000080000002F
(1684363306.831502) vcan0 244#0000000191
(1684363306.832753) vcan0 1AA#7FFF000000006720
(1684363306.832804) vcan0 1B0#000F0000000166
(1684363306.832845) vcan0 1D0#000000000000000A
(1684363306.834103) vcan0 166#D0320009
(1684363306.835897) vcan0 158#000000000000000A
(1684363306.835936) vcan0 161#000005500108000D
(1684363306.835944) vcan0 191#010090A1410030
(1684363306.835951) vcan0 133#0000000098
(1684363306.835957) vcan0 136#000200000000001B
(1684363306.835963) vcan0 13A#0000000000000019
(1684363306.835969) vcan0 13F#000000050000001F
(1684363306.837090) vcan0 164#0000C01AA8000031
(1684363306.837167) vcan0 17C#0000000010000012
(1684363306.837176) vcan0 18E#00005C
(1684363306.838369) vcan0 183#0000000600001014
(1684363306.840088) vcan0 143#6B6B00D1
(1684363306.841491) vcan0 095#800007F400000008
(1684363306.842959) vcan0 244#00000001E3
(1684363306.844176) vcan0 166#D0320018
(1684363306.845359) vcan0 158#0000000000000019
(1684363306.845440) vcan0 161#000005500108001C
(1684363306.845455) vcan0 191#010090A1410003
(1684363306.845467) vcan0 164#0000C01AA8000004
(1684363306.845478) vcan0 133#00000000A7
(1684363306.847065) vcan0 136#000200000000002A
(1684363306.847143) vcan0 13A#0000000000000028
(1684363306.847158) vcan0 13F#000000050000002E
(1684363306.847170) vcan0 17C#0000000010000021
(1684363306.847181) vcan0 18E#00006B
(1684363306.847192) vcan0 1CF#80050000001E
(1684363306.847203) vcan0 1DC#0200001B
(1684363306.847214) vcan0 320#000012
(1684363306.848766) vcan0 324#7465000000000E1A
(1684363306.848863) vcan0 37C#FD00FD00097F001A
(1684363306.848878) vcan0 039#0039
(1684363306.848890) vcan0 183#0000000C0000102D
(1684363306.848902) vcan0 143#6B6B00E0
(1684363306.851995) vcan0 095#800007F400000017
(1684363306.852048) vcan0 1A4#000000080000003E
(1684363306.852063) vcan0 1AA#7FFF00000000673F
(1684363306.852078) vcan0 1B0#000F0000000175
(1684363306.852091) vcan0 1D0#000000000000000A
(1684363306.853427) vcan0 166#D0320027
(1684363306.854121) vcan0 244#00000001E2
(1684363306.855215) vcan0 158#0000000000000028
(1684363306.855265) vcan0 161#000005500108002B
(1684363306.855279) vcan0 191#010090A1410012
(1684363306.855307) vcan0 133#00000000B6
(1684363306.857728) vcan0 136#0002000000000039
(1684363306.857929) vcan0 13A#0000000000000037
(1684363306.857943) vcan0 13F#000000050000003D
(1684363306.857956) vcan0 164#0000C01AA9000012
(1684363306.857970) vcan0 17C#0000000010000030
(1684363306.857982) vcan0 18E#00007A
(1684363306.857996) vcan0 294#040B0002CF5A001D
(1684363306.858011) vcan0 21E#03E83745220610
(1684363306.859791) vcan0 183#000000090000103F
(1684363306.859852) vcan0 143#6B6B00FF
(1684363306.859870) vcan0 039#000C
(1684363306.861559) vcan0 095#800007F400000026
(1684363306.863326) vcan0 166#D0320036
(1684363306.864682) vcan0 158#0000000000000037
(1684363306.864713) vcan0 161#000005500108003A
(1684363306.865336) vcan0 244#00000001A6
(1684363306.865910) vcan0 191#010090A1410021
(1684363306.865954) vcan0 164#0000C01AA9000021
(1684363306.865968) vcan0 133#0000000089
(1684363306.865996) vcan0 136#000200000000000C
(1684363306.866012) vcan0 13A#000000000000000A
(1684363306.866026) vcan0 13F#0000000500000000
(1684363306.867679) vcan0 17C#0000000010000003
(1684363306.867751) vcan0 18E#00004D
(1684363306.867767) vcan0 1CF#80050000002D
(1684363306.867781) vcan0 1DC#0200002A
(1684363306.867794) vcan0 183#0000000E0000100D
(1684363306.869431) vcan0 143#6B6B00C2
(1684363306.870803) vcan0 095#800007F400000035
(1684363306.872398) vcan0 1A4#0000000800000001
(1684363306.872460) vcan0 1AA#7FFF000000006801
(1684363306.872471) vcan0 1B0#000F0000000148
(1684363306.872482) vcan0 1D0#000000000000000A
(1684363306.874036) vcan0 166#D0320009
(1684363306.875601) vcan0 158#000000000000000A
(1684363306.875651) vcan0 161#000005500108000D
(1684363306.875658) vcan0 191#010090A1410030
(1684363306.875664) vcan0 039#001B
(1684363306.875670) vcan0 133#0000000098
(1684363306.875677) vcan0 136#000200000000001B
(1684363306.875683) vcan0 13A#0000000000000019
(1684363306.876259) vcan0 244#000000017B
(1684363306.877409) vcan0 13F#000000050000001F
(1684363306.877430) vcan0 164#0000C01AA8000031
(1684363306.877443) vcan0 17C#0000000010000012
(1684363306.877456) vcan0 18E#00005C
(1684363306.877469) vcan0 309#00000000000000A2
(1684363306.879017) vcan0 183#0000000A00001010
(1684363306.879088) vcan0 143#6B6B00D1
(1684363306.880767) vcan0 095#800007F400000008
(1684363306.883882) vcan0 166#D0320018
(1684363306.885848) vcan0 158#0000000000000019
(1684363306.885898) vcan0 161#000005500108001C
(1684363306.885906) vcan0 191#010090A1410003
(1684363306.885912) vcan0 133#00000000A7
(1684363306.885918) vcan0 136#000200000000002A
(1684363306.885924) vcan0 13A#0000000000000028
(1684363306.885933) vcan0 13F#000000050000002E
(1684363306.887500) vcan0 164#0000C01AA8000004
(1684363306.887527) vcan0 17C#0000000010000021
(1684363306.887541) vcan0 18E#00006B
(1684363306.887566) vcan0 1CF#80050000003C
(1684363306.887577) vcan0 1DC#02000039
(1684363306.887588) vcan0 183#0000000700001022
(1684363306.887620) vcan0 244#000000010C
(1684363306.889120) vcan0 143#6B6B00E0
(1684363306.890454) vcan0 039#002A
(1684363306.890999) vcan0 095#800007F400000017
(1684363306.892829) vcan0 1A4#0000000800000010
(1684363306.892898) vcan0 1AA#7FFF000000006810
(1684363306.892912) vcan0 1B0#000F0000000157
(1684363306.892961) vcan0 1D0#000000000000000A
(1684363306.894137) vcan0 166#D0320027
(1684363306.895955) vcan0 158#0000000000000028
(1684363306.896011) vcan0 161#000005500108002B
(1684363306.896025) vcan0 191#010090A1410012
(1684363306.896041) vcan0 133#00000000B6
(1684363306.896055) vcan0 136#0002000000000039
(1684363306.896067) vcan0 13A#0000000000000037
(1684363306.896079) vcan0 13F#000000050000003D
(1684363306.896090) vcan0 164#0000C01AA8000013
(1684363306.897800) vcan0 17C#0000000010000030
(1684363306.897852) vcan0 18E#00007A
(1684363306.897866) vcan0 294#040B0002CF5A002C
(1684363306.897880) vcan0 21E#03E8374522062F
(1684363306.899111) vcan0 183#0000000500001033
(1684363306.899163) vcan0 143#6B6B00FF
(1684363306.900886) vcan0 095#800007F400000026
(1684363306.903387) vcan0 166#D0320036
(1684363306.903412) vcan0 244#0000000102
(1684363306.905150) vcan0 039#0039
(1684363306.905184) vcan0 158#0000000000000037
(1684363306.905199) vcan0 161#000005500108003A
(1684363306.905213) vcan0 191#010090A1410021
(1684363306.905225) vcan0 305#8026
(1684363306.905238) vcan0 133#0000000089
(1684363306.907064) vcan0 136#000200000000000C
(1684363306.907152) vcan0 13A#000000000000000A
(1684363306.907161) vcan0 13F#0000000500000000
(1684363306.907168) vcan0 164#0000C01AA8000022
(1684363306.907174) vcan0 17C#0000000010000003
(1684363306.907183) vcan0 18E#00004D
(1684363306.907191) vcan0 1CF#80050000000F
(1684363306.907197) vcan0 1DC#0200000C
(1684363306.908565) vcan0 183#0000000300001008
(1684363306.908634) vcan0 143#6B6B00C2
(1684363306.911678) vcan0 095#800007F400000035
(1684363306.911735) vcan0 1A4#000000080000002F
(1684363306.911753) vcan0 1AA#7FFF000000006720
(1684363306.911769) vcan0 1B0#000F0000000166
(1684363306.913510) vcan0 1D0#000000000000000A
(1684363306.913562) vcan0 166#D0320009
(1684363306.914756) vcan0 244#000000012D
(1684363306.915343) vcan0 158#000000000000000A
(1684363306.915398) vcan0 161#000005500108000D
(1684363306.915416) vcan0 191#010090A1410030
(1684363306.915432) vcan0 133#0000000098
(1684363306.915448) vcan0 136#000200000000001B
(1684363306.916968) vcan0 13A#0000000000000019
(1684363306.917051) vcan0 13F#000000050000001F
(1684363306.917067) vcan0 164#0000C01AA8000031
(1684363306.917080) vcan0 17C#0000000010000012
(1684363306.917091) vcan0 18E#00005C
(1684363306.918802) vcan0 039#000C
(1684363306.918865) vcan0 183#0000000A00001010
(1684363306.918881) vcan0 143#6B6B00D1
(1684363306.920558) vcan0 095#800007F400000008
(1684363306.920697) vcan0 188#00000000
(1684363306.923460) vcan0 166#D0320018
(1684363306.925330) vcan0 158#0000000000000019
(1684363306.925379) vcan0 161#000005500108001C
(1684363306.925387) vcan0 191#010090A1410003
(1684363306.925393) vcan0 133#00000000A7
(1684363306.925401) vcan0 136#000200000000002A
(1684363306.926011) vcan0 244#0000000118
(1684363306.926897) vcan0 13A#0000000000000028
(1684363306.926955) vcan0 13F#000000050000002E
(1684363306.926970) vcan0 164#0000C01AA8000004
(1684363306.926998) vcan0 17C#0000000010000021
(1684363306.927013) vcan0 18E#00006B
(1684363306.927026) vcan0 1CF#80050000001E
(1684363306.927038) vcan0 1DC#0200001B
(1684363306.928646) vcan0 183#0000000700001022
(1684363306.928717) vcan0 143#6B6B00E0
(1684363306.929909) vcan0 333#0000000000002D
(1684363306.931282) vcan0 095#800007F400000017
(1684363306.931338) vcan0 1A4#000000080000003E
(1684363306.932972) vcan0 1AA#7FFF00000000673F
(1684363306.933043) vcan0 1B0#000F0000000175
(1684363306.933058) vcan0 1D0#000000000000000A
(1684363306.933070) vcan0 039#001B
(1684363306.934294) vcan0 166#D0320027
(1684363306.936051) vcan0 158#0000000000000028
(1684363306.936100) vcan0 161#000005500108002B
(1684363306.936114) vcan0 191#010090A1410012
(1684363306.936128) vcan0 133#00000000B6
(1684363306.936141) vcan0 136#0002000000000039
(1684363306.936155) vcan0 13A#0000000000000037
(1684363306.936166) vcan0 13F#000000050000003D
(1684363306.936177) vcan0 164#0000C01AA8000013
(1684363306.937209) vcan0 244#0000000125
(1684363306.937705) vcan0 17C#0000000010000030
(1684363306.937772) vcan0 18E#00007A
(1684363306.937785) vcan0 294#040B0002CF5A003B
(1684363306.937814) vcan0 21E#03E8374522063E
(1684363306.939270) vcan0 183#0000000500001033
(1684363306.939362) vcan0 143#6B6B00FF
(1684363306.940767) vcan0 095#800007F400000026
(1684363306.943690) vcan0 166#D0320036
(1684363306.945495) vcan0 158#0000000000000037
(1684363306.945531) vcan0 161#000005500108003A
(1684363306.945539) vcan0 191#010010A1410029
(1684363306.945545) vcan0 133#0000000089
(1684363306.945550) vcan0 136#000200000000000C
(1684363306.947300) vcan0 13A#000000000000000A
(1684363306.947336) vcan0 13F#0000000500000000
(1684363306.947342) vcan0 164#0000C01AA8000022
(1684363306.947348) vcan0 17C#0000000010000003
(1684363306.947354) vcan0 18E#00004D
(1684363306.947360) vcan0 1CF#80050000002D
(1684363306.947366) vcan0 1DC#0200002A
(1684363306.947372) vcan0 320#000021
(1684363306.947379) vcan0 324#7465000000000E29
(1684363306.948462) vcan0 244#00000001A4
(1684363306.948656) vcan0 37C#FD00FD00097F0029
(1684363306.948683) vcan0 183#0000000B00001000
(1684363306.948703) vcan0 143#6B6B00C2
(1684363306.951993) vcan0 095#800007F400000035
(1684363306.952062) vcan0 1A4#0000000800000001
(1684363306.952084) vcan0 1AA#7FFF000000006801
(1684363306.952104) vcan0 1B0#000F0000000148
(1684363306.952142) vcan0 1D0#000000000000000A
(1684363306.952217) vcan0 039#002A
(1684363306.953456) vcan0 166#D0320009
(1684363306.954685) vcan0 158#000000000000000A
(1684363306.954764) vcan0 161#000005500108000D
(1684363306.956415) vcan0 191#010010A1410038
(1684363306.956443) vcan0 133#0000000098
(1684363306.956455) vcan0 136#000200000000001B
(1684363306.956468) vcan0 13A#0000000000000019
(1684363306.956479) vcan0 13F#000000050000001F
(1684363306.956490) vcan0 164#0000C01AA8000031
(1684363306.956501) vcan0 17C#0000000010000012
(1684363306.956512) vcan0 18E#00005C
(1684363306.959725) vcan0 183#0000000800001012
(1684363306.959749) vcan0 244#000000010D
(1684363306.959898) vcan0 143#6B6B00D1
(1684363306.961283) vcan0 095#800007F400000008
(1684363306.964455) vcan0 166#D0320018
(1684363306.964542) vcan0 158#0000000000000019
(1684363306.965919) vcan0 161#000005500108001C
(1684363306.965971) vcan0 191#010010A141000B
(1684363306.966002) vcan0 039#0039
(1684363306.966012) vcan0 133#00000000A7
(1684363306.966019) vcan0 136#000200000000002A
(1684363306.966025) vcan0 13A#0000000000000028
(1684363306.966030) vcan0 13F#000000050000002E
(1684363306.967700) vcan0 164#0000C01AA8000004
(1684363306.967763) vcan0 17C#0000000010000021
(1684363306.967772) vcan0 18E#00006B
(1684363306.967780) vcan0 1CF#80050000003C
(1684363306.967788) vcan0 1DC#02000039
(1684363306.967796) vcan0 183#0000000D0000102C
(1684363306.969581) vcan0 143#6B6B00E0
(1684363306.971275) vcan0 095#800007F400000017
(1684363306.971303) vcan0 244#00000001B6
(1684363306.971485) vcan0 1A4#0000000800000010
(1684363306.971535) vcan0 1AA#7FFF000000006810
(1684363306.973131) vcan0 1B0#000F0000000157
(1684363306.973207) vcan0 1D0#000000000000000A
(1684363306.973221) vcan0 166#D0320027
(1684363306.974688) vcan0 158#0000000000000028
(1684363306.974750) vcan0 161#000005500108002B
(1684363306.976616) vcan0 191#010010A141001A
(1684363306.976677) vcan0 133#00000000B6
(1684363306.976690) vcan0 136#0002000000000039
(1684363306.976704) vcan0 13A#0000000000000037
(1684363306.976715) vcan0 13F#000000050000003D
(1684363306.976726) vcan0 164#0000C01AA8000013
(1684363306.976737) vcan0 17C#0000000010000030
(1684363306.976747) vcan0 18E#00007A
(1684363306.976758) vcan0 294#040B0002CF5A000E
(1684363306.978519) vcan0 21E#03E83745220601
(1684363306.978566) vcan0 309#00000000000000B1
(1684363306.978582) vcan0 183#0000001100001036
(1684363306.978596) vcan0 143#6B6B00FF
(1684363306.980184) vcan0 039#000C
(1684363306.981767) vcan0 095#800007F400000026
(1684363306.981928) vcan0 244#000000018C
(1684363306.984646) vcan0 166#D0320036
(1684363306.984714) vcan0 158#0000000000000037
(1684363306.984721) vcan0 161#000005500108003A
(1684363306.986096) vcan0 191#010010A1410029
(1684363306.986174) vcan0 164#0000C01AA8000022
(1684363306.986188) vcan0 133#0000000089
(1684363306.986200) vcan0 136#000200000000000C
(1684363306.986212) vcan0 13A#000000000000000A
(1684363306.986222) vcan0 13F#0000000500000000
(1684363306.987811) vcan0 17C#0000000010000003
(1684363306.987862) vcan0 18E#00004D
(1684363306.987877) vcan0 1CF#80050000000F
(1684363306.987902) vcan0 1DC#0200000C
(1684363306.987914) vcan0 183#0000000C0000100F
(1684363306.989533) vcan0 143#6B6B00C2
(1684363306.991148) vcan0 095#800007F400000035
(1684363306.991219) vcan0 1A4#000000080000002F
(1684363306.992593) vcan0 1AA#7FFF000000006720
(1684363306.992632) vcan0 244#00000001A0
(1684363306.992654) vcan0 1B0#000F0000000166
(1684363306.992670) vcan0 1D0#000000000000000A
(1684363306.993875) vcan0 166#D0320009
(1684363306.995737) vcan0 158#000000000000000A
(1684363306.995815) vcan0 161#000005500108000D
(1684363306.995831) vcan0 191#010010A1410038
(1684363306.995849) vcan0 039#001B
(1684363306.995864) vcan0 133#0000000098
(1684363306.995877) vcan0 136#000200000000001B
(1684363306.995889) vcan0 13A#0000000000000019
(1684363306.997402) vcan0 13F#000000050000001F
(1684363306.997475) vcan0 164#0000C01AA8000031
(1684363306.997489) vcan0 17C#0000000010000012
(1684363306.997502) vcan0 18E#00005C
(1684363306.999203) vcan0 183#0000001000001019
(1684363306.999256) vcan0 143#6B6B00D1
(1684363307.000981) vcan0 095#800007F400000008
(1684363307.003406) vcan0 166#D0320018
(1684363307.003543) vcan0 244#0000000152
(1684363307.005118) vcan0 158#0000000000000019
(1684363307.005172) vcan0 161#000005500108001C
(1684363307.005183) vcan0 191#010010A141000B
(1684363307.005193) vcan0 133#00000000A7
(1684363307.006730) vcan0 136#000200000000002A
(1684363307.006768) vcan0 13A#0000000000000028
(1684363307.006783) vcan0 13F#000000050000002E
(1684363307.006795) vcan0 164#0000C01AA8000004
(1684363307.006807) vcan0 17C#0000000010000021
(1684363307.006821) vcan0 18E#00006B
(1684363307.006835) vcan0 1CF#80050000001E
(1684363307.006848) vcan0 1DC#0200001B
(1684363307.008268) vcan0 183#0000000C0000102D
(1684363307.009968) vcan0 143#6B6B00E0
(1684363307.010038) vcan0 039#002A
(1684363307.010052) vcan0 305#8035
(1684363307.011813) vcan0 095#800007F400000017
(1684363307.011958) vcan0 1A4#000000080000003E
(1684363307.012053) vcan0 1AA#7FFF00000000673F
(1684363307.012101) vcan0 1B0#000F0000000175
(1684363307.012115) vcan0 1D0#000000000000000A
(1684363307.013489) vcan0 166#D0320027
(1684363307.014741) vcan0 244#00000001AC
(1684363307.014760) vcan0 158#0000000000000028
(1684363307.014787) vcan0 161#000005500108002B
(1684363307.016058) vcan0 191#010010A141001A
(1684363307.016131) vcan0 133#00000000B6
(1684363307.016150) vcan0 136#0002000000000039
(1684363307.016167) vcan0 13A#0000000000000037
(1684363307.016182) vcan0 13F#000000050000003D
(1684363307.016198) vcan0 164#0000C01AA8000013
(1684363307.017926) vcan0 17C#0000000010000030
(1684363307.017986) vcan0 18E#00007A
(1684363307.017993) vcan0 294#040B0002CF5A001D
(1684363307.017999) vcan0 21E#03E83745220610
(1684363307.019799) vcan0 183#000000090000103F
(1684363307.019851) vcan0 143#6B6B00FF
(1684363307.021364) vcan0 095#800007F400000026
(1684363307.023243) vcan0 166#D0320036
(1684363307.025102) vcan0 039#0039
(1684363307.025176) vcan0 158#0000000000000037
(1684363307.025192) vcan0 161#000005500108003A
(1684363307.025206) vcan0 191#010010A1410029
(1684363307.025220) vcan0 133#0000000089
(1684363307.025420) vcan0 244#0000000110
(1684363307.026853) vcan0 136#000200000000000C
(1684363307.026917) vcan0 13A#000000000000000A
(1684363307.026927) vcan0 13F#0000000500000000
(1684363307.026937) vcan0 164#0000C01AA9000021
(1684363307.026949) vcan0 17C#0000000010000003
(1684363307.026960) vcan0 18E#00004D
(1684363307.026972) vcan0 1CF#80050000002D
(1684363307.026984) vcan0 1DC#0200002A
(1684363307.028170) vcan0 183#0000000E0000100D
(1684363307.029411) vcan0 143#6B6B00C2
(1684363307.029448) vcan0 333#0000000000003C
(1684363307.030759) vcan0 095#800007F400000035
(1684363307.032540) vcan0 1A4#0000000800000001
(1684363307.032577) vcan0 1AA#7FFF000000006801
(1684363307.032584) vcan0 1B0#000F0000000148
(1684363307.032591) vcan0 1D0#000000000000000A
(1684363307.034209) vcan0 166#D0320009
(1684363307.036019) vcan0 158#000000000000000A
(1684363307.036086) vcan0 161#000005500108000D
(1684363307.036102) vcan0 191#010010A1410038
(1684363307.036116) vcan0 133#0000000098
(1684363307.036128) vcan0 136#000200000000001B
(1684363307.036141) vcan0 13A#0000000000000019
(1684363307.036155) vcan0 13F#000000050000001F
(1684363307.036168) vcan0 164#0000C01AA8000031
(1684363307.037444) vcan0 17C#0000000010000012
(1684363307.037528) vcan0 18E#00005C
(1684363307.037542) vcan0 039#000C
(1684363307.038733) vcan0 183#0000000A00001010
(1684363307.039812) vcan0 143#6B6B00D1
(1684363307.041772) vcan0 095#800007F400000008
(1684363307.041914) vcan0 244#0000000131
(1684363307.043351) vcan0 166#D0320018
(1684363307.044757) vcan0 158#0000000000000019
(1684363307.044832) vcan0 161#000005500108001C
(1684363307.044850) vcan0 191#010010A141000B
(1684363307.047163) vcan0 133#00000000A7
(1684363307.047258) vcan0 136#000200000000002A
(1684363307.047272) vcan0 13A#0000000000000028
(1684363307.047284) vcan0 13F#000000050000002E
(1684363307.047294) vcan0 164#0000C01AA8000004
(1684363307.047305) vcan0 17C#0000000010000021
(1684363307.047316) vcan0 18E#00006B
(1684363307.047327) vcan0 1CF#80050000003C
(1684363307.047337) vcan0 1DC#02000039
(1684363307.047348) vcan0 320#000030
(1684363307.047359) vcan0 324#7465000000000E38
(1684363307.048947) vcan0 37C#FD00FD00097F0038
(1684363307.049043) vcan0 40C#0000000004000013
(1684363307.049085) vcan0 183#0000000F0000102A
(1684363307.049164) vcan0 454#23EF18
(1684363307.049179) vcan0 143#6B6B00E0
(1684363307.050605) vcan0 095#800007F400000017
(1684363307.052358) vcan0 1A4#0000000800000010
(1684363307.052374) vcan0 244#0000000157
(1684363307.052407) vcan0 1AA#7FFF000000006810
(1684363307.052455) vcan0 1B0#000F0000000157
(1684363307.052470) vcan0 1D0#000000000000000A
(1684363307.053715) vcan0 166#D0320027
(1684363307.055079) vcan0 158#0000000000000028
(1684363307.055162) vcan0 161#000005500108002B
(1684363307.055177) vcan0 191#010010A141001A
(1684363307.055188) vcan0 133#00000000B6
(1684363307.056906) vcan0 136#0002000000000039
(1684363307.057021) vcan0 13A#0000000000000037
(1684363307.057037) vcan0 13F#000000050000003D
(1684363307.057052) vcan0 164#0000C01AA9000012
(1684363307.057066) vcan0 17C#0000000010000030
(1684363307.057078) vcan0 18E#00007A
(1684363307.057089) vcan0 294#040B0002CF5A002C
(1684363307.057101) vcan0 039#001B
(1684363307.057144) vcan0 21E#03E8374522062F
(1684363307.058298) vcan0 183#0000001300001034
(1684363307.060108) vcan0 143#6B6B00FF
(1684363307.061507) vcan0 095#800007F400000026
(1684363307.063265) vcan0 166#D0320036
(1684363307.063480) vcan0 244#00000001E7
(1684363307.064491) vcan0 158#0000000000000037
(1684363307.065821) vcan0 161#000005500108003A
(1684363307.065921) vcan0 191#010010A1410029
(1684363307.065937) vcan0 164#0000C01AA8000022
(1684363307.065949) vcan0 133#0000000089
(1684363307.066083) vcan0 136#000200000000000C
(1684363307.066164) vcan0 13A#000000000000000A
(1684363307.066178) vcan0 13F#0000000500000000
(1684363307.067548) vcan0 17C#0000000010000003
(1684363307.067627) vcan0 18E#00004D
(1684363307.067643) vcan0 1CF#80050000000F
(1684363307.067659) vcan0 1DC#0200000C
(1684363307.067674) vcan0 183#0000000E0000100D
(1684363307.069268) vcan0 143#6B6B00C2
(1684363307.070812) vcan0 095#800007F400000035
(1684363307.072869) vcan0 1A4#000000080000002F
(1684363307.072928) vcan0 1AA#7FFF000000006720
(1684363307.072940) vcan0 1B0#000F0000000166
(1684363307.072951) vcan0 1D0#000000000000000A
(1684363307.074445) vcan0 166#D0320009
(1684363307.074540) vcan0 158#000000000000000A
(1684363307.074747) vcan0 244#0000000132
(1684363307.076133) vcan0 161#000005500108000D
(1684363307.076184) vcan0 191#010010A1410038
(1684363307.076216) vcan0 133#0000000098
(1684363307.076249) vcan0 136#000200000000001B
(1684363307.076286) vcan0 13A#0000000000000019
(1684363307.076322) vcan0 13F#000000050000001F
(1684363307.076335) vcan0 164#0000C01AA8000031
(1684363307.076346) vcan0 17C#0000000010000012
(1684363307.077812) vcan0 18E#00005C
(1684363307.077881) vcan0 309#0000000000000084
(1684363307.077898) vcan0 428#01040000521C2F
(1684363307.077912) vcan0 405#0000040000000029
(1684363307.077925) vcan0 039#002A
(1684363307.079628) vcan0 183#0000001200001017
(1684363307.079684) vcan0 143#6B6B00D1
(1684363307.080791) vcan0 095#800007F400000008
(1684363307.083746) vcan0 166#D0320018
(1684363307.085127) vcan0 158#0000000000000019
(1684363307.085183) vcan0 161#000005500108001C
(1684363307.085220) vcan0 191#010010A141000B
(1684363307.085256) vcan0 164#0000C01AA8000004
(1684363307.085294) vcan0 133#00000000A7
(1684363307.086073) vcan0 244#00000001A9
(1684363307.087254) vcan0 136#000200000000002A
(1684363307.087280) vcan0 13A#0000000000000028
(1684363307.087293) vcan0 13F#000000050000002E
(1684363307.087305) vcan0 17C#0000000010000021
(1684363307.087347) vcan0 18E#00006B
(1684363307.087371) vcan0 1CF#80050000001E
(1684363307.087382) vcan0 1DC#0200001B
(1684363307.088547) vcan0 183#0000000D0000102C
(1684363307.088623) vcan0 143#6B6B00E0
(1684363307.091594) vcan0 095#800007F400000017
(1684363307.091620) vcan0 039#0039
(1684363307.091627) vcan0 1A4#000000080000003E
(1684363307.091633) vcan0 1AA#7FFF00000000683E
(1684363307.093007) vcan0 1B0#000F0000000175
(1684363307.093063) vcan0 1D0#000000000000000A
(1684363307.094607) vcan0 166#D0320027
(1684363307.094644) vcan0 158#0000000000000028
(1684363307.094651) vcan0 161#000005500108002B
(1684363307.096392) vcan0 191#010010A141001A
(1684363307.096463) vcan0 133#00000000B6
(1684363307.096473) vcan0 136#0002000000000039
(1684363307.096481) vcan0 13A#0000000000000037
(1684363307.096488) vcan0 13F#000000050000003D
(1684363307.096496) vcan0 164#0000C01AA8000013
(1684363307.096504) vcan0 17C#0000000010000030
(1684363307.096510) vcan0 18E#00007A
(1684363307.096622) vcan0 244#0000000176
(1684363307.098015) vcan0 294#040B0002CF5A003B
(1684363307.098090) vcan0 21E#03E8374522063E
(1684363307.098147) vcan0 183#000000090000103F
(1684363307.099775) vcan0 143#6B6B00FF
(1684363307.101554) vcan0 095#800007F400000026
(1684363307.104178) vcan0 166#D0320036
(1684363307.106280) vcan0 158#0000000000000037
(1684363307.106412) vcan0 161#000005500108003A
(1684363307.106493) vcan0 191#010010A1410029
(1684363307.106577) vcan0 164#0000C01AA8000022
(1684363307.106658) vcan0 133#0000000089
(1684363307.106831) vcan0 136#000200000000000C
(1684363307.106898) vcan0 13A#000000000000000A
(1684363307.106913) vcan0 13F#0000000500000000
(1684363307.106926) vcan0 17C#0000000010000003
(1684363307.106939) vcan0 18E#00004D
(1684363307.106951) vcan0 039#000C
(1684363307.106963) vcan0 1CF#80050000002D
(1684363307.106974) vcan0 1DC#0200002A
(1684363307.107672) vcan0 244#00000001F7
(1684363307.108844) vcan0 183#0000000E0000100D
(1684363307.108869) vcan0 143#6B6B00C2
(1684363307.111224) vcan0 095#800007F400000035
(1684363307.111288) vcan0 1A4#0000000800000001
(1684363307.112944) vcan0 1AA#7FFF000000006801
(1684363307.112963) vcan0 1B0#000F0000000148
(1684363307.112970) vcan0 1D0#000000000000000A
(1684363307.114594) vcan0 166#D0320009
(1684363307.114623) vcan0 305#8008
(1684363307.114635) vcan0 158#000000000000000A
(1684363307.114647) vcan0 161#000005500108000D
(1684363307.116453) vcan0 191#010010A1410038
(1684363307.116517) vcan0 133#0000000098
(1684363307.116526) vcan0 136#000200000000001B
(1684363307.116534) vcan0 13A#0000000000000019
(1684363307.116543) vcan0 13F#000000050000001F
(1684363307.116551) vcan0 164#0000C01AA8000031
(1684363307.116559) vcan0 17C#0000000010000012
(1684363307.116565) vcan0 18E#00005C
(1684363307.119891) vcan0 183#0000000A00001010
(1684363307.119942) vcan0 143#6B6B00D1
(1684363307.121759) vcan0 095#800007F400000008
(1684363307.121815) vcan0 039#001B
(1684363307.123280) vcan0 166#D0320018
(1684363307.123599) vcan0 244#00000001A2
(1684363307.124745) vcan0 158#0000000000000019
(1684363307.124786) vcan0 161#000005500108001C
(1684363307.126247) vcan0 191#010010A141000B
(1684363307.126312) vcan0 133#00000000A7
(1684363307.126326) vcan0 136#000200000000002A
(1684363307.126340) vcan0 13A#0000000000000028
(1684363307.126353) vcan0 13F#000000050000002E
(1684363307.126369) vcan0 164#0000C01AA8000004
(1684363307.126383) vcan0 17C#0000000010000021
(1684363307.128069) vcan0 18E#00006B
(1684363307.128123) vcan0 1CF#80050000003C
(1684363307.128130) vcan0 1DC#02000039
(1684363307.128136) vcan0 183#0000000F0000102A
(1684363307.130038) vcan0 143#6B6B00E0
(1684363307.130108) vcan0 333#0000000000000F
(1684363307.131764) vcan0 095#800007F400000017
(1684363307.131816) vcan0 1A4#0000000800000010
(1684363307.131846) vcan0 1AA#7FFF000000006810
(1684363307.131854) vcan0 1B0#000F0000000157
(1684363307.133537) vcan0 1D0#000000000000000A
(1684363307.133573) vcan0 166#D0320027
(1684363307.134850) vcan0 158#0000000000000028
(1684363307.134890) vcan0 161#000005500108002B
(1684363307.134903) vcan0 191#010010A141001A
(1684363307.134917) vcan0 244#0000000119
(1684363307.136116) vcan0 133#00000000B6
(1684363307.136162) vcan0 136#0002000000000039
(1684363307.136176) vcan0 13A#0000000000000037
(1684363307.136188) vcan0 13F#000000050000003D
(1684363307.136199) vcan0 164#0000C01AA8000013
(1684363307.137711) vcan0 17C#0000000010000030
(1684363307.137748) vcan0 18E#00007A
(1684363307.137765) vcan0 294#040B0002CF5A000E
(1684363307.137823) vcan0 21E#03E83745220601
(1684363307.139552) vcan0 183#0000000B0000103D
(1684363307.139695) vcan0 143#6B6B00FF
(1684363307.141223) vcan0 095#800007F400000026
(1684363307.141273) vcan0 039#002A
(1684363307.144357) vcan0 166#D0320036
(1684363307.144397) vcan0 158#0000000000000037
(1684363307.146068) vcan0 161#000005500108003A
(1684363307.146095) vcan0 191#010010A1410029
(1684363307.146109) vcan0 133#0000000089
(1684363307.146122) vcan0 136#000200000000000C
(1684363307.146135) vcan0 13A#000000000000000A
(1684363307.146146) vcan0 13F#0000000500000000
(1684363307.146157) vcan0 164#0000C01AA8000022
(1684363307.146281) vcan0 244#000000011B
(1684363307.147620) vcan0 17C#0000000010000003
(1684363307.147640) vcan0 18E#00004D
(1684363307.147653) vcan0 1CF#80050000000F
(1684363307.147667) vcan0 1DC#0200000C
(1684363307.147682) vcan0 320#000003
(1684363307.147688) vcan0 324#7465000000000E0B
(1684363307.147694) vcan0 37C#FD00FD00097F000B
(1684363307.149504) vcan0 183#0000000800001003
(1684363307.149566) vcan0 143#6B6B00C2
(1684363307.151254) vcan0 095#800007F400000035
(1684363307.151291) vcan0 1A4#000000080000002F
(1684363307.153027) vcan0 1AA#7FFF000000006720
(1684363307.153064) vcan0 1B0#000F0000000166
(1684363307.153071) vcan0 1D0#000000000000000A
(1684363307.154375) vcan0 166#D0320009
(1684363307.154427) vcan0 039#0039
(1684363307.154439) vcan0 158#000000000000000A
(1684363307.156108) vcan0 161#000005500108000D
(1684363307.156200) vcan0 191#010010A1410038
(1684363307.156220) vcan0 133#0000000098
(1684363307.156233) vcan0 136#000200000000001B
(1684363307.156246) vcan0 13A#0000000000000019
(1684363307.156257) vcan0 13F#000000050000001F
(1684363307.156271) vcan0 164#0000C01AA8000031
(1684363307.157223) vcan0 244#00000001AF
(1684363307.157684) vcan0 17C#0000000010000012
(1684363307.157741) vcan0 18E#00005C
(1684363307.158947) vcan0 183#0000000D0000101D
(1684363307.158966) vcan0 143#6B6B00D1
(1684363307.161871) vcan0 095#800007F400000008
(1684363307.163705) vcan0 166#D0320018
(1684363307.165440) vcan0 158#0000000000000019
(1684363307.165517) vcan0 161#000005500108001C
(1684363307.165533) vcan0 191#010010A141000B
(1684363307.165548) vcan0 164#0000C01AA9000003
(1684363307.165563) vcan0 133#00000000A7
(1684363307.165575) vcan0 136#000200000000002A
(1684363307.167657) vcan0 13A#0000000000000028
(1684363307.167718) vcan0 13F#000000050000002E
(1684363307.167732) vcan0 17C#0000000010000021
(1684363307.167747) vcan0 18E#00006B
(1684363307.167761) vcan0 1CF#80050000001E
(1684363307.167774) vcan0 1DC#0200001B
(1684363307.167786) vcan0 039#000C
(1684363307.167797) vcan0 183#0000000900001020
(1684363307.167887) vcan0 244#0000000149
(1684363307.169081) vcan0 143#6B6B00E0
(1684363307.172481) vcan0 095#800007F400000017
(1684363307.172583) vcan0 1A4#000000080000003E
(1684363307.172600) vcan0 1AA#7FFF00000000683E
(1684363307.172615) vcan0 1B0#000F0000000175
(1684363307.172629) vcan0 1D0#000000000000000A
(1684363307.174186) vcan0 166#D0320027
(1684363307.176070) vcan0 158#0000000000000028
(1684363307.176128) vcan0 161#000005500108002B
(1684363307.176136) vcan0 191#010010A141001A
(1684363307.176143) vcan0 133#00000000B6
(1684363307.176149) vcan0 136#0002000000000039
(1684363307.176155) vcan0 13A#0000000000000037
(1684363307.176162) vcan0 13F#000000050000003D
(1684363307.176168) vcan0 164#0000C01AA8000013
(1684363307.177677) vcan0 17C#0000000010000030
(1684363307.177756) vcan0 18E#00007A
(1684363307.177772) vcan0 294#040B0002CF5A001D
(1684363307.177789) vcan0 21E#03E83745220610
(1684363307.177803) vcan0 309#0000000000000093
(1684363307.178668) vcan0 244#00000001B0
(1684363307.179010) vcan0 183#0000000E0000103A
(1684363307.179054) vcan0 143#6B6B00FF
(1684363307.182019) vcan0 095#800007F400000026
(1684363307.183834) vcan0 039#001B
(1684363307.183884) vcan0 166#D0320036
(1684363307.185634) vcan0 158#0000000000000037
(1684363307.185649) vcan0 161#000005500108003A
(1684363307.185656) vcan0 191#010010A1410029
(1684363307.185663) vcan0 133#0000000089
(1684363307.185669) vcan0 136#000200000000000C
(1684363307.185675) vcan0 13A#000000000000000A
(1684363307.187468) vcan0 13F#0000000500000000
(1684363307.187488) vcan0 164#0000C01AA8000022
(1684363307.187495) vcan0 17C#0000000010000003
(1684363307.187501) vcan0 18E#00004D
(1684363307.187507) vcan0 1CF#80050000002D
(1684363307.187524) vcan0 1DC#0200002A
(1684363307.188982) vcan0 183#0000000A00001001
(1684363307.189050) vcan0 143#6B6B00C2
(1684363307.189723) vcan0 244#00000001DD
(1684363307.191646) vcan0 095#800007F400000035
(1684363307.191749) vcan0 1A4#0000000800000001
(1684363307.191764) vcan0 1AA#7FFF000000006801
(1684363307.191777) vcan0 1B0#000F0000000148
(1684363307.193104) vcan0 1D0#000000000000000A
(1684363307.194803) vcan0 166#D0320009
(1684363307.194841) vcan0 158#000000000000000A
(1684363307.194849) vcan0 161#000005500108000D
(1684363307.194855) vcan0 191#010010A1410038
(1684363307.196567) vcan0 133#0000000098
(1684363307.196604) vcan0 136#000200000000001B
(1684363307.196611) vcan0 13A#0000000000000019
(1684363307.196618) vcan0 13F#000000050000001F
(1684363307.196625) vcan0 164#0000C01AA8000031
(1684363307.196631) vcan0 17C#0000000010000012
(1684363307.196637) vcan0 18E#00005C
(1684363307.197900) vcan0 039#002A
(1684363307.199236) vcan0 183#0000000700001013
(1684363307.199291) vcan0 143#6B6B00D1
(1684363307.201013) vcan0 244#0000000148
(1684363307.201251) vcan0 095#800007F400000008
(1684363307.203960) vcan0 166#D0320018
(1684363307.205861) vcan0 158#0000000000000019
(1684363307.205931) vcan0 161#000005500108001C
(1684363307.205938) vcan0 191#010010A141000B
(1684363307.205944) vcan0 164#0000C01AA8000004
(1684363307.205950) vcan0 133#00000000A7
(1684363307.205956) vcan0 136#000200000000002A
(1684363307.205962) vcan0 13A#0000000000000028
(1684363307.207573) vcan0 13F#000000050000002E
(1684363307.207662) vcan0 17C#0000000010000021
(1684363307.207689) vcan0 18E#00006B
(1684363307.207710) vcan0 1CF#80050000003C
(1684363307.207772) vcan0 1DC#02000039
(1684363307.207793) vcan0 183#0000000D0000102C
(1684363307.209603) vcan0 143#6B6B00E0
(1684363307.211360) vcan0 095#800007F400000017
(1684363307.211396) vcan0 039#0039
(1684363307.211403) vcan0 1A4#0000000800000010
(1684363307.212524) vcan0 244#000000012F
(1684363307.212755) vcan0 1AA#7FFF000000006810
(1684363307.212783) vcan0 1B0#000F0000000157
(1684363307.212792) vcan0 1D0#000000000000000A
(1684363307.214189) vcan0 166#D0320027
(1684363307.216133) vcan0 158#0000000000000028
(1684363307.216201) vcan0 161#000005500108002B
(1684363307.216215) vcan0 191#010010A141001A
(1684363307.216227) vcan0 133#00000000B6
(1684363307.216238) vcan0 136#0002000000000039
(1684363307.216250) vcan0 13A#0000000000000037
(1684363307.216261) vcan0 13F#000000050000003D
(1684363307.216273) vcan0 164#0000C01AA8000013
(1684363307.216287) vcan0 17C#0000000010000030
(1684363307.218135) vcan0 18E#00007A
(1684363307.218191) vcan0 294#040B0002CF5A002C
(1684363307.218205) vcan0 21E#03E8374522062F
(1684363307.218217) vcan0 305#8017
(1684363307.218229) vcan0 183#000000090000103F
(1684363307.219801) vcan0 143#6B6B00FF
(1684363307.221099) vcan0 095#800007F400000026
(1684363307.224061) vcan0 166#D0320036
(1684363307.224079) vcan0 244#000000019F
(1684363307.225549) vcan0 158#0000000000000037
(1684363307.225613) vcan0 161#000005500108003A
(1684363307.225640) vcan0 191#010010A1410029
(1684363307.225655) vcan0 039#000C
(1684363307.225858) vcan0 133#0000000089
(1684363307.225878) vcan0 136#000200000000000C
(1684363307.225893) vcan0 13A#000000000000000A
(1684363307.225908) vcan0 13F#0000000500000000
(1684363307.227705) vcan0 164#0000C01AA8000022
(1684363307.227788) vcan0 17C#0000000010000003
(1684363307.227802) vcan0 18E#00004D
(1684363307.227815) vcan0 1CF#80050000000F
(1684363307.227826) vcan0 1DC#0200000C
(1684363307.227836) vcan0 183#0000000600001005
(1684363307.229133) vcan0 143#6B6B00C2
(1684363307.230507) vcan0 333#0000000000001E
(1684363307.232316) vcan0 095#800007F400000035
(1684363307.232436) vcan0 1A4#000000080000002F
(1684363307.232484) vcan0 1AA#7FFF000000006720
(1684363307.232528) vcan0 1B0#000F0000000166
(1684363307.232541) vcan0 1D0#000000000000000A
(1684363307.233867) vcan0 166#D0320009
(1684363307.235092) vcan0 244#000000015F
(1684363307.235640) vcan0 158#000000000000000A
(1684363307.235690) vcan0 161#000005500108000D
(1684363307.235703) vcan0 191#010010A1410038
(1684363307.235716) vcan0 133#0000000098
(1684363307.235727) vcan0 136#000200000000001B
(1684363307.235740) vcan0 13A#0000000000000019
(1684363307.237260) vcan0 13F#000000050000001F
(1684363307.237327) vcan0 164#0000C01AA8000031
(1684363307.237339) vcan0 17C#0000000010000012
(1684363307.237350) vcan0 18E#00005C
(1684363307.239031) vcan0 183#0000000C0000101E
(1684363307.239097) vcan0 143#6B6B00D1
(1684363307.241971) vcan0 095#800007F400000008
(1684363307.243814) vcan0 166#D0320018
(1684363307.245186) vcan0 158#0000000000000019
(1684363307.245201) vcan0 161#000005500108001C
(1684363307.245207) vcan0 191#010090A1410003
(1684363307.245213) vcan0 039#001B
(1684363307.245219) vcan0 133#00000000A7
(1684363307.246001) vcan0 244#00000001D8
(1684363307.246898) vcan0 136#000200000000002A
(1684363307.246909) vcan0 13A#0000000000000028
(1684363307.246917) vcan0 13F#000000050000002E
(1684363307.246933) vcan0 164#0000C01AA8000004
(1684363307.246947) vcan0 17C#0000000010000021
(1684363307.246960) vcan0 18E#00006B
(1684363307.246973) vcan0 1CF#80050000001E
(1684363307.246986) vcan0 1DC#0200001B
(1684363307.248880) vcan0 320#000012
(1684363307.248909) vcan0 324#7465000000000E1A
(1684363307.248915) vcan0 37C#FD00FD00097F001A
(1684363307.248921) vcan0 183#0000000900001020
(1684363307.248927) vcan0 143#6B6B00E0
(1684363307.252010) vcan0 095#800007F400000017
(1684363307.252071) vcan0 1A4#000000080000003E
(1684363307.252090) vcan0 1AA#7FFF00000000683E
(1684363307.252104) vcan0 1B0#000F0000000175
(1684363307.252117) vcan0 1D0#000000000000000A
(1684363307.254169) vcan0 166#D0320027
(1684363307.256013) vcan0 158#0000000000000028
(1684363307.256274) vcan0 161#000005500108002B
(1684363307.256411) vcan0 191#010090A1410012
(1684363307.256423) vcan0 133#00000000B6
(1684363307.256433) vcan0 136#0002000000000039
(1684363307.256444) vcan0 13A#0000000000000037
(1684363307.256457) vcan0 13F#000000050000003D
(1684363307.256470) vcan0 164#0000C01AA8000013
(1684363307.256483) vcan0 17C#0000000010000030
(1684363307.256495) vcan0 18E#00007A
(1684363307.256801) vcan0 244#000000013D
(1684363307.257818) vcan0 294#040B0002CF5A003B
(1684363307.257844) vcan0 21E#03E8374522063E
(1684363307.257852) vcan0 039#002A
(1684363307.259196) vcan0 183#0000000E0000103A
(1684363307.259268) vcan0 143#6B6B00FF
(1684363307.261901) vcan0 095#800007F400000026
(1684363307.263732) vcan0 166#D0320036
(1684363307.265491) vcan0 158#0000000000000037
(1684363307.265528) vcan0 161#000005500108003A
(1684363307.265535) vcan0 191#010090A1410021
(1684363307.265541) vcan0 133#0000000089
(1684363307.265547) vcan0 136#000200000000000C
(1684363307.265553) vcan0 13A#000000000000000A
(1684363307.267160) vcan0 13F#0000000500000000
(1684363307.267223) vcan0 164#0000C01AA8000022
(1684363307.267240) vcan0 17C#0000000010000003
(1684363307.267254) vcan0 18E#00004D
(1684363307.267266) vcan0 1CF#80050000002D
(1684363307.267280) vcan0 1DC#0200002A
(1684363307.268372) vcan0 244#00000001A9
(1684363307.268637) vcan0 183#0000000A00001001
(1684363307.268653) vcan0 143#6B6B00C2
(1684363307.271746) vcan0 095#800007F400000035
(1684363307.271774) vcan0 1A4#0000000800000001
(1684363307.271790) vcan0 1AA#7FFF000000006801
(1684363307.271803) vcan0 1B0#000F0000000148
(1684363307.273415) vcan0 1D0#000000000000000A
(1684363307.273468) vcan0 039#0039
(1684363307.273476) vcan0 166#D0320009
(1684363307.274797) vcan0 158#000000000000000A
(1684363307.274846) vcan0 161#000005500108000D
(1684363307.274863) vcan0 191#010090A1410030
(1684363307.276171) vcan0 133#0000000098
(1684363307.276206) vcan0 136#000200000000001B
(1684363307.276213) vcan0 13A#0000000000000019
(1684363307.276219) vcan0 13F#000000050000001F
(1684363307.276225) vcan0 164#0000C01AA8000031
(1684363307.277740) vcan0 17C#0000000010000012
(1684363307.277804) vcan0 18E#00005C
(1684363307.277811) vcan0 309#00000000000000A2
(1684363307.279578) vcan0 244#000000018D
(1684363307.279589) vcan0 183#0000000F0000101B
(1684363307.279766) vcan0 143#6B6B00D1
(1684363307.281113) vcan0 095#800007F400000008
(1684363307.284084) vcan0 166#D0320018
(1684363307.285971) vcan0 158#0000000000000019
(1684363307.286008) vcan0 161#000005500108001C
(1684363307.286015) vcan0 191#010090A1410003
(1684363307.286021) vcan0 164#0000C01AA8000004
(1684363307.286027) vcan0 133#00000000A7
(1684363307.286033) vcan0 136#000200000000002A
(1684363307.286038) vcan0 13A#0000000000000028
(1684363307.286044) vcan0 13F#000000050000002E
(1684363307.287764) vcan0 17C#0000000010000021
(1684363307.287799) vcan0 18E#00006B
(1684363307.287806) vcan0 039#000C
(1684363307.287812) vcan0 1CF#80050000003C
(1684363307.287817) vcan0 1DC#02000039
(1684363307.287824) vcan0 183#0000000B0000102E
(1684363307.289593) vcan0 143#6B6B00E0
(1684363307.290847) vcan0 244#000000017F
(1684363307.291266) vcan0 095#800007F400000017
(1684363307.291288) vcan0 1A4#0000000800000010
(1684363307.292638) vcan0 1AA#7FFF000000006810
(1684363307.292671) vcan0 1B0#000F0000000157
(1684363307.292684) vcan0 1D0#000000000000000A
(1684363307.294051) vcan0 166#D0320027
(1684363307.295369) vcan0 158#0000000000000028
(1684363307.295411) vcan0 161#000005500108002B
(1684363307.295419) vcan0 191#010090A1410012
(1684363307.295425) vcan0 133#00000000B6
(1684363307.295431) vcan0 136#0002000000000039
(1684363307.297131) vcan0 13A#0000000000000037
(1684363307.297167) vcan0 13F#000000050000003D
(1684363307.297174) vcan0 164#0000C01AA8000013
(1684363307.297181) vcan0 17C#0000000010000030
(1684363307.297187) vcan0 18E#00007A
(1684363307.297194) vcan0 294#040B0002CF5A000E
(1684363307.297200) vcan0 21E#03E83745220601
(1684363307.298970) vcan0 183#0000000800001030
(1684363307.299022) vcan0 143#6B6B00FF
(1684363307.300765) vcan0 039#001B
(1684363307.301938) vcan0 095#800007F400000026
(1684363307.301956) vcan0 244#00000001E9
(1684363307.303515) vcan0 166#D0320036
(1684363307.305088) vcan0 158#0000000000000037
(1684363307.305148) vcan0 161#000005500108003A
(1684363307.305164) vcan0 191#010090A1410021
(1684363307.305179) vcan0 133#0000000089
(1684363307.306793) vcan0 136#000200000000000C
(1684363307.306860) vcan0 13A#000000000000000A
(1684363307.306928) vcan0 13F#0000000500000000
(1684363307.306943) vcan0 164#0000C01AA8000022
(1684363307.306953) vcan0 17C#0000000010000003
(1684363307.306963) vcan0 18E#00004D
(1684363307.306974) vcan0 1CF#80050000000F
(1684363307.306985) vcan0 1DC#0200000C
(1684363307.308547) vcan0 183#0000000600001005
(1684363307.308629) vcan0 143#6B6B00C2
(1684363307.311696) vcan0 095#800007F400000035
(1684363307.311737) vcan0 1A4#000000080000002F
(1684363307.311744) vcan0 1AA#7FFF000000006720
(1684363307.311750) vcan0 1B0#000F0000000166
(1684363307.313305) vcan0 1D0#000000000000000A
(1684363307.313356) vcan0 166#D0320009
(1684363307.313430) vcan0 244#00000001B6
(1684363307.314534) vcan0 158#000000000000000A
(1684363307.315873) vcan0 161#000005500108000D
(1684363307.315900) vcan0 191#010090A1410030
(1684363307.315916) vcan0 133#0000000098
(1684363307.315923) vcan0 136#000200000000001B
(1684363307.315929) vcan0 039#002A
(1684363307.315935) vcan0 13A#0000000000000019
(1684363307.315940) vcan0 13F#000000050000001F
(1684363307.317406) vcan0 164#0000C01AA8000031
(1684363307.317454) vcan0 17C#0000000010000012
(1684363307.317461) vcan0 18E#00005C
(1684363307.318886) vcan0 183#0000000400001016
(1684363307.318938) vcan0 143#6B6B00D1
(1684363307.321975) vcan0 095#800007F400000008
(1684363307.322000) vcan0 305#8026
(1684363307.323790) vcan0 166#D0320018
(1684363307.325517) vcan0 158#0000000000000019
(1684363307.325571) vcan0 161#000005500108001C
(1684363307.325583) vcan0 191#010090A1410003
(1684363307.325595) vcan0 133#00000000A7
(1684363307.325605) vcan0 136#000200000000002A
(1684363307.325611) vcan0 13A#0000000000000028
(1684363307.327192) vcan0 13F#000000050000002E
(1684363307.327231) vcan0 164#0000C01AA8000004
(1684363307.327239) vcan0 17C#0000000010000021
(1684363307.327245) vcan0 18E#00006B
(1684363307.327251) vcan0 1CF#80050000001E
(1684363307.327258) vcan0 1DC#0200001B
(1684363307.329037) vcan0 183#0000000300001026
(1684363307.329074) vcan0 143#6B6B00E0
(1684363307.329081) vcan0 039#0039
(1684363307.329771) vcan0 244#0000000151
(1684363307.330343) vcan0 333#0000000000002D
(1684363307.332234) vcan0 095#800007F400000017
(1684363307.332282) vcan0 1A4#000000080000003E
(1684363307.332289) vcan0 1AA#7FFF00000000683E
(1684363307.332296) vcan0 1B0#000F0000000175
(1684363307.332302) vcan0 1D0#000000000000000A
(1684363307.334089) vcan0 166#D0320027
(1684363307.335882) vcan0 158#0000000000000028
(1684363307.335920) vcan0 161#000005500108002B
(1684363307.335927) vcan0 191#010090A1410012
(1684363307.335933) vcan0 133#00000000B6
(1684363307.335940) vcan0 136#0002000000000039
(1684363307.335946) vcan0 13A#0000000000000037
(1684363307.335952) vcan0 13F#000000050000003D
(1684363307.337559) vcan0 164#0000C01AA8000013
(1684363307.337577) vcan0 17C#0000000010000030
(1684363307.337594) vcan0 18E#00007A
(1684363307.337607) vcan0 294#040B0002CF5A001D
(1684363307.337623) vcan0 21E#03E83745220610
(1684363307.339235) vcan0 183#0000000A0000103E
(1684363307.339314) vcan0 143#6B6B00FF
(1684363307.340985) vcan0 095#800007F400000026
(1684363307.341017) vcan0 244#0000000111
(1684363307.344288) vcan0 166#D0320036
(1684363307.345735) vcan0 158#0000000000000037
(1684363307.345760) vcan0 161#000005500108003A
(1684363307.345788) vcan0 191#010090A1410021
(1684363307.345800) vcan0 133#0000000089
(1684363307.345812) vcan0 136#000200000000000C
(1684363307.345822) vcan0 13A#000000000000000A
(1684363307.345864) vcan0 13F#0000000500000000
(1684363307.347238) vcan0 164#0000C01AA8000022
(1684363307.347288) vcan0 17C#0000000010000003
(1684363307.347302) vcan0 18E#00004D
(1684363307.347315) vcan0 1CF#80050000002D
(1684363307.347357) vcan0 1DC#0200002A
(1684363307.347369) vcan0 320#000021
(1684363307.347380) vcan0 324#7465000000000E29
(1684363307.349018) vcan0 37C#FD00FD00097F0029
(1684363307.349072) vcan0 40C#014A484D46413325
(1684363307.349086) vcan0 183#0000000700001004
(1684363307.349098) vcan0 454#23EF27
(1684363307.349110) vcan0 143#6B6B00C2
(1684363307.351961) vcan0 095#800007F400000035
(1684363307.352010) vcan0 039#000C
(1684363307.352024) vcan0 1A4#0000000800000001
(1684363307.352037) vcan0 1AA#7FFF000000006801
(1684363307.352044) vcan0 244#0000000172
(1684363307.352049) vcan0 1B0#000F0000000148
(1684363307.352062) vcan0 1D0#000000000000000A
(1684363307.353295) vcan0 166#D0320009
(1684363307.354689) vcan0 158#000000000000000A
(1684363307.354775) vcan0 161#000005500108000D
(1684363307.356579) vcan0 191#010090A1410030
(1684363307.356649) vcan0 133#0000000098
(1684363307.356663) vcan0 136#000200000000001B
(1684363307.356678) vcan0 13A#0000000000000019
(1684363307.356692) vcan0 13F#000000050000001F
(1684363307.356704) vcan0 164#0000C01AA8000031
(1684363307.356715) vcan0 17C#0000000010000012
(1684363307.356727) vcan0 18E#00005C
(1684363307.358379) vcan0 183#0000000D0000101D
(1684363307.358470) vcan0 143#6B6B00D1
(1684363307.361891) vcan0 095#800007F400000008
(1684363307.363171) vcan0 244#0000000140
(1684363307.364468) vcan0 166#D0320018
(1684363307.364616) vcan0 158#0000000000000019
(1684363307.364663) vcan0 161#000005500108001C
(1684363307.366025) vcan0 191#010090A1410003
(1684363307.366101) vcan0 133#00000000A7
(1684363307.366115) vcan0 136#000200000000002A
(1684363307.366127) vcan0 13A#0000000000000028
(1684363307.366139) vcan0 13F#000000050000002E
(1684363307.366151) vcan0 164#0000C01AA8000004
(1684363307.367917) vcan0 17C#0000000010000021
(1684363307.367953) vcan0 18E#00006B
(1684363307.367959) vcan0 1CF#80050000003C
(1684363307.367965) vcan0 1DC#02000039
(1684363307.367971) vcan0 183#0000001100001027
(1684363307.369761) vcan0 143#6B6B00E0
(1684363307.371566) vcan0 039#001B
(1684363307.371625) vcan0 095#800007F400000017
(1684363307.371640) vcan0 1A4#0000000800000010
(1684363307.371654) vcan0 1AA#7FFF000000006810
(1684363307.371665) vcan0 1B0#000F0000000157
(1684363307.373058) vcan0 1D0#000000000000000A
(1684363307.373276) vcan0 166#D0320027
(1684363307.374073) vcan0 244#00000001DA
(1684363307.374452) vcan0 158#0000000000000028
(1684363307.375813) vcan0 161#000005500108002B
(1684363307.375869) vcan0 191#010090A1410012
(1684363307.375884) vcan0 133#00000000B6
(1684363307.375896) vcan0 136#0002000000000039
(1684363307.375909) vcan0 13A#0000000000000037
(1684363307.375922) vcan0 13F#000000050000003D
(1684363307.377786) vcan0 164#0000C01AA8000013
(1684363307.377835) vcan0 17C#0000000010000030
(1684363307.377842) vcan0 18E#00007A
(1684363307.377849) vcan0 294#040B0002CF5A002C
(1684363307.377855) vcan0 21E#03E8374522062F
(1684363307.377862) vcan0 309#00000000000000B1
(1684363307.377868) vcan0 428#01040000521C3E
(1684363307.377874) vcan0 405#0000040000000038
(1684363307.379614) vcan0 183#0000000C0000103C
(1684363307.379676) vcan0 143#6B6B00FF
(1684363307.381296) vcan0 095#800007F400000026
(1684363307.384358) vcan0 166#D0320036
(1684363307.384406) vcan0 039#002A
(1684363307.384413) vcan0 158#0000000000000037
(1684363307.385034) vcan0 244#000000019E
(1684363307.385678) vcan0 161#000005500108003A
(1684363307.386258) vcan0 191#010090A1410021
(1684363307.386308) vcan0 133#0000000089
(1684363307.386323) vcan0 136#000200000000000C
(1684363307.386336) vcan0 13A#000000000000000A
(1684363307.386513) vcan0 13F#0000000500000000
(1684363307.386531) vcan0 164#0000C01AA8000022
(1684363307.386543) vcan0 17C#0000000010000003
(1684363307.386555) vcan0 18E#00004D
(1684363307.388011) vcan0 1CF#80050000000F
(1684363307.388077) vcan0 1DC#0200000C
(1684363307.388092) vcan0 183#000000100000100A
(1684363307.389709) vcan0 143#6B6B00C2
(1684363307.391627) vcan0 095#800007F400000035
(1684363307.391691) vcan0 1A4#000000080000002F
(1684363307.391706) vcan0 1AA#7FFF000000006720
(1684363307.391722) vcan0 1B0#000F0000000166
(1684363307.393491) vcan0 1D0#000000000000000A
(1684363307.393539) vcan0 166#D0320009
(1684363307.395296) vcan0 158#000000000000000A
(1684363307.395344) vcan0 161#000005500108000D
(1684363307.395351) vcan0 191#010090A1410030
(1684363307.395357) vcan0 133#0000000098
(1684363307.395363) vcan0 136#000200000000001B
(1684363307.395968) vcan0 244#000000010E
(1684363307.396698) vcan0 13A#0000000000000019
(1684363307.397201) vcan0 13F#000000050000001F
(1684363307.397216) vcan0 164#0000C01AA9000030
(1684363307.397386) vcan0 17C#0000000010000012
(1684363307.397402) vcan0 18E#00005C
(1684363307.399152) vcan0 039#0039
(1684363307.399209) vcan0 183#0000000C0000101E
(1684363307.399216) vcan0 143#6B6B00D1
(1684363307.400913) vcan0 095#800007F400000008
(1684363307.403936) vcan0 166#D0320018
(1684363307.405659) vcan0 158#0000000000000019
(1684363307.405725) vcan0 161#000005500108001C
(1684363307.405738) vcan0 191#010090A1410003
(1684363307.405749) vcan0 133#00000000A7
(1684363307.405759) vcan0 136#000200000000002A
(1684363307.405769) vcan0 13A#0000000000000028
(1684363307.405780) vcan0 13F#000000050000002E
(1684363307.407268) vcan0 164#0000C01AA8000004
(1684363307.407453) vcan0 244#000000014D
(1684363307.407557) vcan0 17C#0000000010000021
(1684363307.407600) vcan0 18E#00006B
(1684363307.407614) vcan0 1CF#80050000001E
(1684363307.407627) vcan0 1DC#0200001B
(1684363307.409056) vcan0 183#0000001000001028
(1684363307.409105) vcan0 143#6B6B00E0
(1684363307.412423) vcan0 095#800007F400000017
(1684363307.412491) vcan0 1A4#000000080000003E
(1684363307.412505) vcan0 1AA#7FFF00000000683E
(1684363307.412521) vcan0 1B0#000F0000000175
(1684363307.412535) vcan0 1D0#000000000000000A
(1684363307.414207) vcan0 039#000C
(1684363307.414278) vcan0 166#D0320027
(1684363307.416033) vcan0 158#0000000000000028
(1684363307.416090) vcan0 161#000005500108002B
(1684363307.416107) vcan0 191#010090A1410012
(1684363307.416121) vcan0 133#00000000B6
(1684363307.416133) vcan0 136#0002000000000039
(1684363307.416146) vcan0 13A#0000000000000037
(1684363307.416159) vcan0 13F#000000050000003D
(1684363307.416171) vcan0 164#0000C01AA8000013
(1684363307.417596) vcan0 17C#0000000010000030
(1684363307.417644) vcan0 18E#00007A
(1684363307.417660) vcan0 294#040B0002CF5A003B
(1684363307.417675) vcan0 21E#03E8374522063E
(1684363307.419463) vcan0 183#0000001300001034
(1684363307.419505) vcan0 143#6B6B00FF
(1684363307.421257) vcan0 095#800007F800000022
(1684363307.423443) vcan0 244#0000000122
(1684363307.423533) vcan0 188#00000000
(1684363307.424650) vcan0 166#D0320036
(1684363307.424909) vcan0 158#0000000000000037
(1684363307.424922) vcan0 161#000005500108003A
(1684363307.424934) vcan0 191#010090A1410021
(1684363307.426111) vcan0 133#0000000089
(1684363307.426388) vcan0 136#000200000000000C
(1684363307.426408) vcan0 13A#000000000000000A
(1684363307.426420) vcan0 13F#0000000500000000
(1684363307.426431) vcan0 164#0000C01AA8000022
(1684363307.426441) vcan0 17C#0000000010000003
(1684363307.426452) vcan0 18E#00004D
(1684363307.428115) vcan0 1CF#80050000002D
(1684363307.428172) vcan0 1DC#0200002A
(1684363307.428179) vcan0 305#8035
(1684363307.428185) vcan0 183#0000000E0000100D
(1684363307.430018) vcan0 143#6B6B00C2
(1684363307.430069) vcan0 333#0000000000003C
(1684363307.431818) vcan0 095#800007F800000031
(1684363307.431871) vcan0 1A4#0000000800000001
(1684363307.431885) vcan0 1AA#7FFF000000006801
(1684363307.431914) vcan0 1B0#000F0000000148
(1684363307.431928) vcan0 1D0#000000000000000A
(1684363307.433646) vcan0 039#001B
(1684363307.433721) vcan0 166#D0320009
(1684363307.434573) vcan0 244#000000015D
(1684363307.435049) vcan0 158#000000000000000A
(1684363307.435103) vcan0 161#000005500108000D
(1684363307.435121) vcan0 191#010090A1410030
(1684363307.435136) vcan0 133#0000000098
(1684363307.436495) vcan0 136#000200000000001B
(1684363307.436632) vcan0 13A#0000000000000019
(1684363307.436646) vcan0 13F#000000050000001F
(1684363307.436657) vcan0 164#0000C01AA8000031
(1684363307.436667) vcan0 17C#0000000010000012
(1684363307.436680) vcan0 18E#00005C
(1684363307.439549) vcan0 183#0000000A00001010
(1684363307.439623) vcan0 143#6B6B00D1
(1684363307.441208) vcan0 095#800007F800000004
(1684363307.444294) vcan0 166#D0320018
(1684363307.445794) vcan0 244#0000000112
(1684363307.446096) vcan0 158#0000000000000019
(1684363307.446115) vcan0 161#000005500108001C
(1684363307.446129) vcan0 191#010090A1410003
(1684363307.446145) vcan0 133#00000000A7
(1684363307.446153) vcan0 136#000200000000002A
(1684363307.446159) vcan0 13A#0000000000000028
(1684363307.446164) vcan0 13F#000000050000002E
(1684363307.446170) vcan0 164#0000C01AA8000004
(1684363307.446176) vcan0 039#002A
(1684363307.447860) vcan0 17C#0000000010000021
(1684363307.447898) vcan0 18E#00006B
(1684363307.447905) vcan0 1CF#80050000003C
(1684363307.447914) vcan0 1DC#02000039
(1684363307.447920) vcan0 320#000030
(1684363307.447927) vcan0 324#7465000000000E38
(1684363307.447933) vcan0 37C#FD00FD00097F0038
(1684363307.447940) vcan0 183#0000000700001022
(1684363307.449285) vcan0 143#6B6B00E0
(1684363307.450792) vcan0 095#800007F800000013
(1684363307.452291) vcan0 1A4#0000000800000010
(1684363307.452349) vcan0 1AA#7FFF000000006810
(1684363307.452364) vcan0 1B0#000F0000000157
(1684363307.452380) vcan0 1D0#000000000000000A
(1684363307.454112) vcan0 166#D0320027
(1684363307.455400) vcan0 158#0000000000000028
(1684363307.455460) vcan0 161#000005500108002B
(1684363307.455471) vcan0 191#010090A1410012
(1684363307.455483) vcan0 133#00000000B6
(1684363307.455493) vcan0 136#0002000000000039
(1684363307.457022) vcan0 13A#0000000000000037
(1684363307.457083) vcan0 13F#000000050000003D
(1684363307.457101) vcan0 164#0000C01AA8000013
(1684363307.457114) vcan0 17C#0000000010000030
(1684363307.457126) vcan0 18E#00007A
(1684363307.457139) vcan0 294#040B0002CF5A000E
(1684363307.457153) vcan0 21E#03E83745220601
(1684363307.457184) vcan0 244#0000000134
(1684363307.458490) vcan0 183#0000000500001033
(1684363307.458563) vcan0 143#6B6B00FF
(1684363307.460370) vcan0 039#0039
(1684363307.461848) vcan0 095#800007F800000022
(1684363307.463633) vcan0 166#D0320036
(1684363307.465440) vcan0 158#0000000000000037
(1684363307.465493) vcan0 161#000005500108003A
(1684363307.465507) vcan0 191#010090A1410021
(1684363307.465520) vcan0 164#0000C01AA8000022
(1684363307.465533) vcan0 133#0000000089
(1684363307.465546) vcan0 136#000200000000000C
(1684363307.466740) vcan0 13A#000000000000000A
(1684363307.466795) vcan0 13F#0000000500000000
(1684363307.466812) vcan0 17C#0000000010000003
(1684363307.466827) vcan0 18E#00004D
(1684363307.466839) vcan0 1CF#80050000000F
(1684363307.466850) vcan0 1DC#0200000C
(1684363307.468263) vcan0 183#0000000B00001000
(1684363307.468318) vcan0 244#0000000171
(1684363307.469551) vcan0 143#6B6B00C2
(1684363307.471096) vcan0 095#800007F800000031
(1684363307.471157) vcan0 1A4#000000080000002F
(1684363307.472916) vcan0 1AA#7FFF000000006720
(1684363307.472985) vcan0 1B0#000F0000000166
(1684363307.473003) vcan0 1D0#000000000000000A
(1684363307.474631) vcan0 166#D0320009
(1684363307.474699) vcan0 158#000000000000000A
(1684363307.474711) vcan0 161#000005500108000D
(1684363307.476500) vcan0 191#010090A1410030
(1684363307.476539) vcan0 039#000C
(1684363307.476546) vcan0 133#0000000098
(1684363307.476552) vcan0 136#000200000000001B
(1684363307.476558) vcan0 13A#0000000000000019
(1684363307.476564) vcan0 13F#000000050000001F
(1684363307.476570) vcan0 164#0000C01AA8000031
(1684363307.476575) vcan0 17C#0000000010000012
(1684363307.476582) vcan0 18E#00005C
(1684363307.477974) vcan0 309#0000000000000084
(1684363307.479199) vcan0 244#0000000150
(1684363307.479445) vcan0 183#0000000800001012
(1684363307.479459) vcan0 143#6B6B00D1
(1684363307.480843) vcan0 095#800007F800000004
(1684363307.484116) vcan0 166#D0320018
(1684363307.485810) vcan0 158#0000000000000019
(1684363307.485925) vcan0 161#000005500108001C
(1684363307.485945) vcan0 191#010090A1410003
(1684363307.485959) vcan0 133#00000000A7
(1684363307.485972) vcan0 136#000200000000002A
(1684363307.485984) vcan0 13A#0000000000000028
(1684363307.485996) vcan0 13F#000000050000002E
(1684363307.486009) vcan0 164#0000C01AA8000004
(1684363307.487595) vcan0 17C#0000000010000021
(1684363307.487652) vcan0 18E#00006B
(1684363307.487666) vcan0 1CF#80050000001E
(1684363307.487680) vcan0 1DC#0200001B
(1684363307.487692) vcan0 183#0000000D0000102C
(1684363307.489351) vcan0 143#6B6B00E0
(1684363307.489430) vcan0 039#001B
(1684363307.490079) vcan0 244#00000001EA
(1684363307.491052) vcan0 095#800007F800000013
(1684363307.492472) vcan0 1A4#000000080000003E
(1684363307.492528) vcan0 1AA#7FFF00000000683E
(1684363307.492540) vcan0 1B0#000F0000000175
(1684363307.492553) vcan0 1D0#000000000000000A
(1684363307.494298) vcan0 166#D0320027
(1684363307.495627) vcan0 158#0000000000000028
(1684363307.495684) vcan0 161#000005500108002B
(1684363307.495717) vcan0 191#010090A1410012
(1684363307.495733) vcan0 133#00000000B6
(1684363307.495744) vcan0 136#0002000000000039
(1684363307.495755) vcan0 13A#0000000000000037
(1684363307.495766) vcan0 13F#000000050000003D
(1684363307.497410) vcan0 164#0000C01AA8000013
(1684363307.497469) vcan0 17C#0000000010000030
(1684363307.497477) vcan0 18E#00007A
(1684363307.497484) vcan0 294#040B0002CF5A001D
(1684363307.497490) vcan0 21E#03E83745220610
(1684363307.498894) vcan0 183#000000090000103F
(1684363307.498947) vcan0 143#6B6B00FF
(1684363307.500732) vcan0 095#800007F800000022
(1684363307.501385) vcan0 244#0000000128
(1684363307.503666) vcan0 166#D0320036
(1684363307.505256) vcan0 039#002A
(1684363307.505306) vcan0 158#0000000000000037
(1684363307.505321) vcan0 161#000005500108003A
(1684363307.505334) vcan0 191#010090A1410021
(1684363307.505347) vcan0 164#0000C01AA8000022
(1684363307.505359) vcan0 133#0000000089
(1684363307.507149) vcan0 136#000200000000000C
(1684363307.507229) vcan0 13A#000000000000000A
(1684363307.507244) vcan0 13F#0000000500000000
(1684363307.507255) vcan0 17C#0000000010000003
(1684363307.507268) vcan0 18E#00004D
(1684363307.507281) vcan0 1CF#80050000002D
(1684363307.507294) vcan0 1DC#0200002A
(1684363307.509110) vcan0 183#0000000600001005
(1684363307.509158) vcan0 143#6B6B00C2
(1684363307.510678) vcan0 095#800007F800000031
(1684363307.511993) vcan0 1A4#0000000800000001
(1684363307.512011) vcan0 1AA#7FFF000000006801
(1684363307.512018) vcan0 1B0#000F0000000148
(1684363307.512025) vcan0 1D0#000000000000000A
(1684363307.512617) vcan0 244#000000011C
(1684363307.513644) vcan0 166#D0320009
(1684363307.515660) vcan0 158#000000000000000A
(1684363307.515731) vcan0 161#000005500108000D
(1684363307.515745) vcan0 191#010090A1410030
(1684363307.515870) vcan0 133#0000000098
(1684363307.515879) vcan0 136#000200000000001B
(1684363307.515885) vcan0 13A#0000000000000019
(1684363307.515896) vcan0 13F#000000050000001F
(1684363307.517808) vcan0 164#0000C01AA8000031
(1684363307.517868) vcan0 17C#0000000010000012
(1684363307.517882) vcan0 18E#00005C
(1684363307.519635) vcan0 183#0000000C0000101E
(1684363307.519698) vcan0 143#6B6B00D1
(1684363307.519715) vcan0 039#0039
(1684363307.521116) vcan0 095#800007F800000004
(1684363307.523192) vcan0 166#D0320018
(1684363307.523827) vcan0 244#000000014F
(1684363307.525202) vcan0 158#0000000000000019
(1684363307.525270) vcan0 161#000005500108001C
(1684363307.525285) vcan0 191#010090A1410003
(1684363307.525297) vcan0 133#00000000A7
(1684363307.525311) vcan0 136#000200000000002A
(1684363307.526575) vcan0 13A#0000000000000028
(1684363307.526646) vcan0 13F#000000050000002E
(1684363307.526660) vcan0 164#0000C01AA8000004
(1684363307.526672) vcan0 17C#0000000010000021
(1684363307.526684) vcan0 18E#00006B
(1684363307.526697) vcan0 1CF#80050000003C
(1684363307.528431) vcan0 1DC#02000039
(1684363307.528512) vcan0 183#0000000900001020
(1684363307.528528) vcan0 143#6B6B00E0
(1684363307.530198) vcan0 333#0000000000000F
(1684363307.531961) vcan0 095#800007F800000013
(1684363307.532023) vcan0 1A4#0000000800000010
(1684363307.532039) vcan0 1AA#7FFF000000006711
(1684363307.532053) vcan0 1B0#000F0000000157
(1684363307.532067) vcan0 1D0#000000000000000A
(1684363307.532081) vcan0 305#8008
(1684363307.533525) vcan0 166#D0320027
(1684363307.534895) vcan0 158#0000000000000028
(1684363307.534905) vcan0 244#0000000175
(1684363307.534963) vcan0 161#000005500108002B
(1684363307.534978) vcan0 191#010090A1410012
(1684363307.536285) vcan0 133#00000000B6
(1684363307.536343) vcan0 136#0002000000000039
(1684363307.536364) vcan0 13A#0000000000000037
(1684363307.536381) vcan0 13F#000000050000003D
(1684363307.536394) vcan0 164#0000C01AA8000013
(1684363307.536422) vcan0 17C#0000000010000030
(1684363307.536428) vcan0 18E#00007A
(1684363307.538216) vcan0 294#040B0002CF5A002C
(1684363307.538276) vcan0 21E#03E8374522062F
(1684363307.538288) vcan0 183#0000000E0000103A
(1684363307.539581) vcan0 143#6B6B00FF
(1684363307.539667) vcan0 039#000C
(1684363307.541263) vcan0 095#800007F800000022
(1684363307.544424) vcan0 166#D0320036
(1684363307.544502) vcan0 158#0000000000000037
(1684363307.546032) vcan0 161#000005500108003A
(1684363307.546065) vcan0 244#0000000115
(1684363307.546081) vcan0 191#010010A1410029
(1684363307.546095) vcan0 133#0000000089
(1684363307.546111) vcan0 136#000200000000000C
(1684363307.546123) vcan0 13A#000000000000000A
(1684363307.546134) vcan0 13F#0000000500000000
(1684363307.546148) vcan0 164#0000C01AA8000022
(1684363307.547307) vcan0 17C#0000000010000003
(1684363307.547352) vcan0 18E#00004D
(1684363307.547368) vcan0 1CF#80050000000F
(1684363307.547538) vcan0 1DC#0200000C
(1684363307.547553) vcan0 320#000003
(1684363307.547566) vcan0 324#7465000000000E0B
(1684363307.547580) vcan0 37C#FD00FD00097F000B
(1684363307.548900) vcan0 183#0000001200001008
(1684363307.548958) vcan0 143#6B6B00C2
(1684363307.551326) vcan0 095#800007F800000031
(1684363307.551411) vcan0 1A4#000000080000002F
(1684363307.551425) vcan0 039#001B
(1684363307.551439) vcan0 1AA#7FFF000000006720
(1684363307.553035) vcan0 1B0#000F0000000166
(1684363307.553084) vcan0 1D0#000000000000000A
(1684363307.554351) vcan0 166#D0320009
(1684363307.554436) vcan0 158#000000000000000A
(1684363307.556090) vcan0 161#000005500108000D
(1684363307.556160) vcan0 191#010010A1410038
(1684363307.556176) vcan0 133#0000000098
(1684363307.556191) vcan0 136#000200000000001B
(1684363307.556208) vcan0 13A#0000000000000019
(1684363307.556220) vcan0 13F#000000050000001F
(1684363307.556229) vcan0 164#0000C01AA8000031
(1684363307.557024) vcan0 244#00000001B4
(1684363307.557446) vcan0 17C#0000000010000012
(1684363307.557496) vcan0 18E#00005C
(1684363307.558822) vcan0 183#0000000D0000101D
(1684363307.558900) vcan0 143#6B6B00D1
(1684363307.560690) vcan0 095#800007F800000004
(1684363307.564894) vcan0 166#D0320018
(1684363307.564954) vcan0 158#0000000000000019
(1684363307.564968) vcan0 161#000005500108001C
(1684363307.564981) vcan0 191#010010A141000B
(1684363307.566067) vcan0 164#0000C01AA8000004
(1684363307.566091) vcan0 133#00000000A7
(1684363307.566104) vcan0 136#000200000000002A
(1684363307.566116) vcan0 13A#0000000000000028
(1684363307.566129) vcan0 13F#000000050000002E
(1684363307.566141) vcan0 039#002A
(1684363307.567545) vcan0 17C#0000000010000021
(1684363307.567618) vcan0 18E#00006B
(1684363307.567632) vcan0 1CF#80050000001E
(1684363307.567644) vcan0 1DC#0200001B
(1684363307.568198) vcan0 244#00000001C0
(1684363307.569299) vcan0 183#0000000900001020
(1684363307.569456) vcan0 143#6B6B00E0
(1684363307.572403) vcan0 095#800007F400000017
(1684363307.572469) vcan0 1A4#000000080000003E
(1684363307.572482) vcan0 1AA#7FFF00000000683E
(1684363307.572493) vcan0 1B0#000F0000000175
(1684363307.572504) vcan0 1D0#000000000000000A
(1684363307.573841) vcan0 166#D0320027
(1684363307.575815) vcan0 158#0000000000000028
(1684363307.575956) vcan0 161#000005500108002B
(1684363307.576073) vcan0 191#010010A141001A
(1684363307.576089) vcan0 133#00000000B6
(1684363307.576136) vcan0 136#0002000000000039
(1684363307.576150) vcan0 13A#0000000000000037
(1684363307.576163) vcan0 13F#000000050000003D
(1684363307.576176) vcan0 164#0000C01AA8000013
(1684363307.577416) vcan0 17C#0000000010000030
(1684363307.577490) vcan0 18E#00007A
(1684363307.577505) vcan0 294#040B0002CF5A003B
(1684363307.577517) vcan0 21E#03E8374522063E
(1684363307.577527) vcan0 309#0000000000000093
(1684363307.579068) vcan0 183#0000000600001032
(1684363307.579126) vcan0 244#0000000150
(1684363307.579127) vcan0 143#6B6B00FF
(1684363307.580859) vcan0 039#0039
(1684363307.580908) vcan0 095#800007F400000026
(1684363307.584241) vcan0 166#D0320036
(1684363307.586090) vcan0 158#0000000000000037
(1684363307.586118) vcan0 161#000005500108003A
(1684363307.586133) vcan0 191#010010A1410029
(1684363307.586146) vcan0 133#0000000089
(1684363307.586159) vcan0 136#000200000000000C
(1684363307.586171) vcan0 13A#000000000000000A
(1684363307.586184) vcan0 13F#0000000500000000
(1684363307.586195) vcan0 164#0000C01AA8000022
(1684363307.587924) vcan0 17C#0000000010000003
(1684363307.587958) vcan0 18E#00004D
(1684363307.587971) vcan0 1CF#80050000002D
(1684363307.587983) vcan0 1DC#0200002A
(1684363307.587994) vcan0 183#0000000C0000100F
(1684363307.589753) vcan0 143#6B6B00C2
(1684363307.590869) vcan0 244#00000001B0
(1684363307.591214) vcan0 095#800007F400000035
(1684363307.591249) vcan0 1A4#0000000800000001
(1684363307.593038) vcan0 1AA#7FFF000000006801
(1684363307.593114) vcan0 1B0#000F0000000148
(1684363307.593128) vcan0 1D0#000000000000000A
(1684363307.594745) vcan0 166#D0320009
(1684363307.594855) vcan0 039#000C
(1684363307.594925) vcan0 158#000000000000000A
(1684363307.594988) vcan0 161#000005500108000D
(1684363307.595052) vcan0 191#010010A1410038
(1684363307.595115) vcan0 133#0000000098
(1684363307.596714) vcan0 136#000200000000001B
(1684363307.596818) vcan0 13A#0000000000000019
(1684363307.596868) vcan0 13F#000000050000001F
(1684363307.596958) vcan0 164#0000C01AA8000031
(1684363307.597006) vcan0 17C#0000000010000012
(1684363307.597100) vcan0 18E#00005C
(1684363307.598645) vcan0 183#0000001000001019
(1684363307.598712) vcan0 143#6B6B00D1
(1684363307.601802) vcan0 095#800007F400000008
(1684363307.603436) vcan0 166#D0320018
(1684363307.604685) vcan0 158#0000000000000019
(1684363307.604776) vcan0 161#000005500108001C
(1684363307.605939) vcan0 191#010010A141000B
(1684363307.606026) vcan0 133#00000000A7
(1684363307.606073) vcan0 136#000200000000002A
(1684363307.606157) vcan0 13A#0000000000000028
(1684363307.606217) vcan0 13F#000000050000002E
(1684363307.606260) vcan0 164#0000C01AA8000004
(1684363307.606275) vcan0 17C#0000000010000021
(1684363307.607657) vcan0 244#0000000134
(1684363307.607752) vcan0 18E#00006B
(1684363307.607774) vcan0 1CF#80050000003C
(1684363307.607786) vcan0 1DC#02000039
(1684363307.607797) vcan0 183#0000000C0000102D
(1684363307.609764) vcan0 143#6B6B00E0
(1684363307.609821) vcan0 039#001B
(1684363307.611283) vcan0 095#800007F400000017
(1684363307.611344) vcan0 1A4#0000000800000010
(1684363307.611351) vcan0 1AA#7FFF000000006711
(1684363307.613039) vcan0 1B0#000F0000000157
(1684363307.613100) vcan0 1D0#000000000000000A
(1684363307.614459) vcan0 166#D0320027
(1684363307.614550) vcan0 158#0000000000000028
(1684363307.616277) vcan0 161#000005500108002B
(1684363307.616372) vcan0 191#010010A141001A
(1684363307.616424) vcan0 133#00000000B6
(1684363307.616476) vcan0 136#0002000000000039
(1684363307.616491) vcan0 13A#0000000000000037
(1684363307.616504) vcan0 13F#000000050000003D
(1684363307.616517) vcan0 164#0000C01AA8000013
(1684363307.616529) vcan0 17C#0000000010000030
(1684363307.616540) vcan0 18E#00007A
(1684363307.617623) vcan0 294#040B0002CF5A000E
(1684363307.617707) vcan0 21E#03E83745220601
(1684363307.619400) vcan0 183#0000001000001037
(1684363307.619483) vcan0 143#6B6B00FF
(1684363307.621139) vcan0 095#800007F400000026
(1684363307.622411) vcan0 039#002A
(1684363307.624016) vcan0 166#D0320036
(1684363307.624067) vcan0 244#00000001AA
(1684363307.625784) vcan0 158#0000000000000037
(1684363307.625855) vcan0 161#000005500108003A
(1684363307.625870) vcan0 191#010010A1410029
(1684363307.625886) vcan0 133#0000000089
(1684363307.625896) vcan0 136#000200000000000C
(1684363307.625902) vcan0 13A#000000000000000A
(1684363307.625908) vcan0 13F#0000000500000000
(1684363307.627692) vcan0 164#0000C01AA8000022
(1684363307.627725) vcan0 17C#0000000010000003
(1684363307.627752) vcan0 18E#00004D
(1684363307.627809) vcan0 1CF#80050000000F
(1684363307.627835) vcan0 1DC#0200000C
(1684363307.627887) vcan0 183#0000000C0000100F
(1684363307.629457) vcan0 143#6B6B00C2
(1684363307.629496) vcan0 333#0000000000001E
(1684363307.630832) vcan0 095#800007F400000035
(1684363307.632618) vcan0 1A4#000000080000002F
(1684363307.632656) vcan0 1AA#7FFF000000006720
(1684363307.632713) vcan0 1B0#000F0000000166
(1684363307.632739) vcan0 1D0#000000000000000A
(1684363307.633914) vcan0 166#D0320009
(1684363307.633971) vcan0 305#8017
(1684363307.635202) vcan0 158#000000000000000A
(1684363307.635224) vcan0 244#0000000176
(1684363307.635425) vcan0 161#000005500108000D
(1684363307.635466) vcan0 191#010010A1410038
(1684363307.635480) vcan0 133#0000000098
(1684363307.635495) vcan0 136#000200000000001B
(1684363307.636711) vcan0 13A#0000000000000019
(1684363307.636765) vcan0 13F#000000050000001F
(1684363307.636779) vcan0 164#0000C01AA8000031
(1684363307.636791) vcan0 17C#0000000010000012
(1684363307.636803) vcan0 18E#00005C
(1684363307.640237) vcan0 183#0000000900001011
(1684363307.640394) vcan0 143#6B6B00D1
(1684363307.641961) vcan0 095#800007F400000008
(1684363307.642026) vcan0 039#0039
(1684363307.643826) vcan0 166#D0320018
(1684363307.645228) vcan0 158#0000000000000019
(1684363307.645264) vcan0 161#000005500108001C
(1684363307.645291) vcan0 191#010010A141000B
(1684363307.645316) vcan0 133#00000000A7
(1684363307.645341) vcan0 136#000200000000002A
(1684363307.645855) vcan0 244#00000001DE
(1684363307.646947) vcan0 13A#0000000000000028
(1684363307.646996) vcan0 13F#000000050000002E
(1684363307.647013) vcan0 164#0000C01AA8000004
(1684363307.647027) vcan0 17C#0000000010000021
(1684363307.647039) vcan0 18E#00006B
(1684363307.647051) vcan0 1CF#80050000001E
(1684363307.647064) vcan0 1DC#0200001B
(1684363307.647078) vcan0 320#000012
(1684363307.648389) vcan0 324#7465000000000E1A
(1684363307.648899) vcan0 37C#FD00FD00097F001A
(1684363307.648963) vcan0 40C#0236323239533039
(1684363307.648975) vcan0 183#0000000E0000102B
